# vsim -vopt work.top -voptargs="+acc=npr" -assertdebug -l simulation.log -coverage -c -do "coverage save -onexit -assert -directive -cvg -codeAll coverage.ucdb; run -all; exit" 
# Start time: 00:48:16 on Dec 05,2025
# ** Note: (vsim-3812) Design is being optimized...
# //  Questa Sim
# //  Version 10.6c linux Jul 25 2017
# //
# //  Copyright 1991-2017 Mentor Graphics Corporation
# //  All Rights Reserved.
# //
# //  QuestaSim and its associated documentation contain trade
# //  secrets and commercial or financial information that are the property of
# //  Mentor Graphics Corporation and are privileged, confidential,
# //  and exempt from disclosure under the Freedom of Information Act,
# //  5 U.S.C. Section 552. Furthermore, this information
# //  is prohibited from disclosure under the Trade Secrets Act,
# //  18 U.S.C. Section 1905.
# //
# Loading sv_std.std
# Loading work.apb_master_interface(fast)
# Loading mtiUvm.uvm_pkg
# Loading work.apb_master_pkg(fast)
# Loading work.apb_master_top_sv_unit(fast)
# Loading work.top(fast)
# Loading work.apb_master_interface(fast)
# Loading work.apb_master_assertions(fast)
# Loading work.apb_slave(fast)
# Loading mtiUvm.questa_uvm_pkg(fast)
# Loading /tools/mentor/questasim_10.6c/questasim/uvm-1.1d/linux/uvm_dpi.so
# coverage save -onexit -assert -directive -cvg -codeAll coverage.ucdb
#  run -all
# ----------------------------------------------------------------
# UVM-1.1d
# (C) 2007-2013 Mentor Graphics Corporation
# (C) 2007-2013 Cadence Design Systems, Inc.
# (C) 2006-2013 Synopsys, Inc.
# (C) 2011-2013 Cypress Semiconductor Corp.
# ----------------------------------------------------------------
# 
#   ***********       IMPORTANT RELEASE NOTES         ************
# 
#   You are using a version of the UVM library that has been compiled
#   with `UVM_NO_DEPRECATED undefined.
#   See http://www.eda.org/svdb/view.php?id=3313 for more details.
# 
#   You are using a version of the UVM library that has been compiled
#   with `UVM_OBJECT_MUST_HAVE_CONSTRUCTOR undefined.
#   See http://www.eda.org/svdb/view.php?id=3770 for more details.
# 
#       (Specify +UVM_NO_RELNOTES to turn off this notice)
# 
# UVM_INFO verilog_src/questa_uvm_pkg-1.2/src/questa_uvm_pkg.sv(215) @ 0: reporter [Questa UVM] QUESTA_UVM-1.2.3
# UVM_INFO verilog_src/questa_uvm_pkg-1.2/src/questa_uvm_pkg.sv(217) @ 0: reporter [Questa UVM]  questa_uvm::init(+struct)
# UVM_INFO @ 0: reporter [RNTST] Running test apb_master_regression_test...
# ** Warning: (vsim-3881) apb_master_subscriber.sv(91): Sign-and-Width conversion applied in bin 'low_data' for Coverpoint 'prdata'. Value '-1' changed to '0 (minimum)' value.
#    Time: 0 ns  Iteration: 7  Region: /uvm_pkg::uvm_phase::m_run_phases
# ** Warning: (vsim-3882) apb_master_subscriber.sv(91): Out of bounds value range in bin 'low_data' for Coverpoint 'prdata' converted to nearest valid bounded range of [0:0].
#    Time: 0 ns  Iteration: 7  Region: /uvm_pkg::uvm_phase::m_run_phases
# ** Warning: (vsim-3881) apb_master_subscriber.sv(92): Sign-and-Width conversion applied in bin 'medium_data' for Coverpoint 'prdata'. Value '-1' changed to '0 (minimum)' value.
#    Time: 0 ns  Iteration: 7  Region: /uvm_pkg::uvm_phase::m_run_phases
# ** Warning: (vsim-3882) apb_master_subscriber.sv(92): Out of bounds value range in bin 'medium_data' for Coverpoint 'prdata' converted to nearest valid bounded range of [0:0].
#    Time: 0 ns  Iteration: 7  Region: /uvm_pkg::uvm_phase::m_run_phases
# ** Warning: (vsim-3881) apb_master_subscriber.sv(93): Sign-and-Width conversion applied in bin 'high_data' for Coverpoint 'prdata'. Value '-1' changed to '0 (minimum)' value.
#    Time: 0 ns  Iteration: 7  Region: /uvm_pkg::uvm_phase::m_run_phases
# ** Warning: (vsim-3882) apb_master_subscriber.sv(93): Out of bounds value range in bin 'high_data' for Coverpoint 'prdata' converted to nearest valid bounded range of [0:0].
#    Time: 0 ns  Iteration: 7  Region: /uvm_pkg::uvm_phase::m_run_phases
# ** Warning: (vsim-3881) apb_master_subscriber.sv(94): Sign-and-Width conversion applied in bin 'max_data' for Coverpoint 'prdata'. Value '-1' changed to '0 (minimum)' value.
#    Time: 0 ns  Iteration: 7  Region: /uvm_pkg::uvm_phase::m_run_phases
# ** Warning: (vsim-3882) apb_master_subscriber.sv(94): Out of bounds value range in bin 'max_data' for Coverpoint 'prdata' converted to nearest valid bounded range of [0:0].
#    Time: 0 ns  Iteration: 7  Region: /uvm_pkg::uvm_phase::m_run_phases
# [1;32m[INFO] [0m [1;36m(ID=UVMTOP)[0m [1;34m[time = 0][0m UVM testbench topology:
# ---------------------------------------------------------------------------
# Name                          Type                              Size  Value
# ---------------------------------------------------------------------------
# uvm_test_top                  apb_master_regression_test        -     @471 
#   apb_master_environment      apb_master_environment            -     @478 
#     apb_master_active_agt     apb_master_active_agent           -     @494 
#       apb_master_active_driv  apb_master_driver                 -     @543 
#         rsp_port              uvm_analysis_port                 -     @558 
#         seq_item_port         uvm_seq_item_pull_port            -     @550 
#       apb_master_active_mon   apb_master_active_monitor         -     @675 
#         active_mon_port       uvm_analysis_port                 -     @682 
#       apb_master_active_seqr  apb_master_sequencer              -     @566 
#         rsp_export            uvm_analysis_export               -     @573 
#         seq_item_export       uvm_seq_item_pull_imp             -     @667 
#         arbitration_queue     array                             0     -    
#         lock_queue            array                             0     -    
#         num_last_reqs         integral                          32    'd1  
#         num_last_rsps         integral                          32    'd1  
#     apb_master_passive_agt    apb_master_passive_agent          -     @501 
#       apb_master_passive_mon  apb_master_passive_monitor        -     @702 
#         passive_mon_port      uvm_analysis_port                 -     @709 
#     apb_master_scoreboard     apb_master_scoreboard             -     @508 
#       active_scb_port         uvm_analysis_imp_active_mon_scb   -     @722 
#       passive_scb_port        uvm_analysis_imp_passive_mon_scb  -     @730 
#     apb_master_subscriber     apb_master_subscriber             -     @515 
#       cov_active_mon_port     uvm_analysis_imp_active_mon_cg    -     @522 
#       cov_passive_mon_port    uvm_analysis_imp_passive_mon_cg   -     @530 
# ---------------------------------------------------------------------------
# 
# [1;32m[INFO] [0m [1;36m(ID=SCOREBOARD)[0m [1;34m[time = 5][0m PRESETN = 0 | PSELX = 0 | PREADY = 0 | PRDATA = 0 | PSLVERR = 0 
# [1;32m[INFO] [0m [1;36m(ID=SCOREBOARD)[0m [1;34m[time = 5][0m ---------------------------------------
# [1;32m[INFO] [0m [1;36m(ID=SCOREBOARD)[0m [1;34m[time = 5][0m ----           TEST PASS           ----
# [1;32m[INFO] [0m [1;36m(ID=SCOREBOARD)[0m [1;34m[time = 5][0m ---------------------------------------
# [1;32m[INFO] [0m [1;36m(ID=SCOREBOARD)[0m [1;34m[time = 15][0m PRESETN = 0 | PSELX = 0 | PREADY = 0 | PRDATA = 0 | PSLVERR = 0 
# [1;32m[INFO] [0m [1;36m(ID=SCOREBOARD)[0m [1;34m[time = 15][0m ---------------------------------------
# [1;32m[INFO] [0m [1;36m(ID=SCOREBOARD)[0m [1;34m[time = 15][0m ----           TEST PASS           ----
# [1;32m[INFO] [0m [1;36m(ID=SCOREBOARD)[0m [1;34m[time = 15][0m ---------------------------------------
# [1;32m[INFO] [0m [1;36m(ID=SCOREBOARD)[0m [1;34m[time = 25][0m PRESETN = 1 | PSELX = 0 | PREADY = 0 | PRDATA = 0 | PSLVERR = 0 
# [1;32m[INFO] [0m [1;36m(ID=SCOREBOARD)[0m [1;34m[time = 25][0m ---------------------------------------
# [1;32m[INFO] [0m [1;36m(ID=SCOREBOARD)[0m [1;34m[time = 25][0m ----           TEST PASS           ----
# [1;32m[INFO] [0m [1;36m(ID=SCOREBOARD)[0m [1;34m[time = 25][0m ---------------------------------------
# [1;32m[INFO] [0m [1;36m(ID=SCOREBOARD)[0m [1;34m[time = 85][0m WRITE TRANSFER
# [1;32m[INFO] [0m [1;36m(ID=SCOREBOARD)[0m [1;34m[time = 85][0m  PRESETN = 1 | PSELX = 1 | PWRITE = 1 | PENABLE = 1 | PSTRB = 0 | PREADY = 1 | PRDATA = 0 | PSLVERR = 0 
# [1;32m[INFO] [0m [1;36m(ID=SCOREBOARD)[0m [1;34m[time = 85][0m data strored at slave[103] =  986278555 
# [1;32m[INFO] [0m [1;36m(ID=SCOREBOARD)[0m [1;34m[time = 115][0m PRESETN = 1 | PSELX = 0 | PREADY = 0 | PRDATA = 0 | PSLVERR = 0 
# [1;32m[INFO] [0m [1;36m(ID=SCOREBOARD)[0m [1;34m[time = 115][0m ---------------------------------------
# [1;32m[INFO] [0m [1;36m(ID=SCOREBOARD)[0m [1;34m[time = 115][0m ----           TEST PASS           ----
# [1;32m[INFO] [0m [1;36m(ID=SCOREBOARD)[0m [1;34m[time = 115][0m ---------------------------------------
# [1;32m[INFO] [0m [1;36m(ID=SCOREBOARD)[0m [1;34m[time = 135][0m READ TRANSFER
# [1;32m[INFO] [0m [1;36m(ID=SCOREBOARD)[0m [1;34m[time = 135][0m  PRESETN = 1 | PSELX = 1 | PWRITE = 0 | PENABLE = 1 | PSTRB = 0 | PREADY = 1 | PRDATA = 986278555 | PSLVERR = 0 
# [1;32m[INFO] [0m [1;36m(ID=SCOREBOARD)[0m [1;34m[time = 135][0m data stored at slave[103] =  986278555 
# [1;32m[INFO] [0m [1;36m(ID=SCOREBOARD)[0m [1;34m[time = 135][0m ---------------------------------------
# [1;32m[INFO] [0m [1;36m(ID=SCOREBOARD)[0m [1;34m[time = 135][0m ----           TEST PASS           ----
# [1;32m[INFO] [0m [1;36m(ID=SCOREBOARD)[0m [1;34m[time = 135][0m ---------------------------------------
# [1;32m[INFO] [0m [1;36m(ID=SCOREBOARD)[0m [1;34m[time = 185][0m WRITE TRANSFER
# [1;32m[INFO] [0m [1;36m(ID=SCOREBOARD)[0m [1;34m[time = 185][0m  PRESETN = 1 | PSELX = 1 | PWRITE = 1 | PENABLE = 1 | PSTRB = 0 | PREADY = 1 | PRDATA = 986278555 | PSLVERR = 0 
# [1;32m[INFO] [0m [1;36m(ID=SCOREBOARD)[0m [1;34m[time = 185][0m data strored at slave[ 23] = 2239947623 
# [1;32m[INFO] [0m [1;36m(ID=SCOREBOARD)[0m [1;34m[time = 235][0m WRITE TRANSFER
# [1;32m[INFO] [0m [1;36m(ID=SCOREBOARD)[0m [1;34m[time = 235][0m  PRESETN = 1 | PSELX = 1 | PWRITE = 1 | PENABLE = 1 | PSTRB = 0 | PREADY = 1 | PRDATA = 986278555 | PSLVERR = 0 
# [1;32m[INFO] [0m [1;36m(ID=SCOREBOARD)[0m [1;34m[time = 235][0m data strored at slave[ 63] = 2143041459 
# [1;32m[INFO] [0m [1;36m(ID=SCOREBOARD)[0m [1;34m[time = 285][0m WRITE TRANSFER
# [1;32m[INFO] [0m [1;36m(ID=SCOREBOARD)[0m [1;34m[time = 285][0m  PRESETN = 1 | PSELX = 1 | PWRITE = 1 | PENABLE = 1 | PSTRB = 0 | PREADY = 1 | PRDATA = 986278555 | PSLVERR = 0 
# [1;32m[INFO] [0m [1;36m(ID=SCOREBOARD)[0m [1;34m[time = 285][0m data strored at slave[ 50] = 1195014637 
# [1;32m[INFO] [0m [1;36m(ID=SCOREBOARD)[0m [1;34m[time = 335][0m READ TRANSFER
# [1;32m[INFO] [0m [1;36m(ID=SCOREBOARD)[0m [1;34m[time = 335][0m  PRESETN = 1 | PSELX = 1 | PWRITE = 0 | PENABLE = 1 | PSTRB = 0 | PREADY = 1 | PRDATA = 2239947623 | PSLVERR = 0 
# [1;32m[INFO] [0m [1;36m(ID=SCOREBOARD)[0m [1;34m[time = 335][0m data stored at slave[ 23] = 2239947623 
# [1;32m[INFO] [0m [1;36m(ID=SCOREBOARD)[0m [1;34m[time = 335][0m ---------------------------------------
# [1;32m[INFO] [0m [1;36m(ID=SCOREBOARD)[0m [1;34m[time = 335][0m ----           TEST PASS           ----
# [1;32m[INFO] [0m [1;36m(ID=SCOREBOARD)[0m [1;34m[time = 335][0m ---------------------------------------
# [1;32m[INFO] [0m [1;36m(ID=SCOREBOARD)[0m [1;34m[time = 385][0m READ TRANSFER
# [1;32m[INFO] [0m [1;36m(ID=SCOREBOARD)[0m [1;34m[time = 385][0m  PRESETN = 1 | PSELX = 1 | PWRITE = 0 | PENABLE = 1 | PSTRB = 0 | PREADY = 1 | PRDATA = 2143041459 | PSLVERR = 0 
# [1;32m[INFO] [0m [1;36m(ID=SCOREBOARD)[0m [1;34m[time = 385][0m data stored at slave[ 63] = 2143041459 
# [1;32m[INFO] [0m [1;36m(ID=SCOREBOARD)[0m [1;34m[time = 385][0m ---------------------------------------
# [1;32m[INFO] [0m [1;36m(ID=SCOREBOARD)[0m [1;34m[time = 385][0m ----           TEST PASS           ----
# [1;32m[INFO] [0m [1;36m(ID=SCOREBOARD)[0m [1;34m[time = 385][0m ---------------------------------------
# [1;32m[INFO] [0m [1;36m(ID=SCOREBOARD)[0m [1;34m[time = 435][0m READ TRANSFER
# [1;32m[INFO] [0m [1;36m(ID=SCOREBOARD)[0m [1;34m[time = 435][0m  PRESETN = 1 | PSELX = 1 | PWRITE = 0 | PENABLE = 1 | PSTRB = 0 | PREADY = 1 | PRDATA = 1195014637 | PSLVERR = 0 
# [1;32m[INFO] [0m [1;36m(ID=SCOREBOARD)[0m [1;34m[time = 435][0m data stored at slave[ 50] = 1195014637 
# [1;32m[INFO] [0m [1;36m(ID=SCOREBOARD)[0m [1;34m[time = 435][0m ---------------------------------------
# [1;32m[INFO] [0m [1;36m(ID=SCOREBOARD)[0m [1;34m[time = 435][0m ----           TEST PASS           ----
# [1;32m[INFO] [0m [1;36m(ID=SCOREBOARD)[0m [1;34m[time = 435][0m ---------------------------------------
# [1;32m[INFO] [0m [1;36m(ID=SCOREBOARD)[0m [1;34m[time = 485][0m WRITE TRANSFER
# [1;32m[INFO] [0m [1;36m(ID=SCOREBOARD)[0m [1;34m[time = 485][0m  PRESETN = 1 | PSELX = 1 | PWRITE = 1 | PENABLE = 1 | PSTRB = 0 | PREADY = 1 | PRDATA = 1195014637 | PSLVERR = 0 
# [1;32m[INFO] [0m [1;36m(ID=SCOREBOARD)[0m [1;34m[time = 485][0m data strored at slave[ 39] = 1859156351 
# [1;32m[INFO] [0m [1;36m(ID=SCOREBOARD)[0m [1;34m[time = 535][0m READ TRANSFER
# [1;32m[INFO] [0m [1;36m(ID=SCOREBOARD)[0m [1;34m[time = 535][0m  PRESETN = 1 | PSELX = 1 | PWRITE = 0 | PENABLE = 1 | PSTRB = 0 | PREADY = 1 | PRDATA = 1859156351 | PSLVERR = 0 
# [1;32m[INFO] [0m [1;36m(ID=SCOREBOARD)[0m [1;34m[time = 535][0m data stored at slave[ 39] = 1859156351 
# [1;32m[INFO] [0m [1;36m(ID=SCOREBOARD)[0m [1;34m[time = 535][0m ---------------------------------------
# [1;32m[INFO] [0m [1;36m(ID=SCOREBOARD)[0m [1;34m[time = 535][0m ----           TEST PASS           ----
# [1;32m[INFO] [0m [1;36m(ID=SCOREBOARD)[0m [1;34m[time = 535][0m ---------------------------------------
# [1;32m[INFO] [0m [1;36m(ID=SCOREBOARD)[0m [1;34m[time = 585][0m WRITE TRANSFER
# [1;32m[INFO] [0m [1;36m(ID=SCOREBOARD)[0m [1;34m[time = 585][0m  PRESETN = 1 | PSELX = 1 | PWRITE = 1 | PENABLE = 1 | PSTRB = 0 | PREADY = 1 | PRDATA = 1859156351 | PSLVERR = 0 
# [1;32m[INFO] [0m [1;36m(ID=SCOREBOARD)[0m [1;34m[time = 585][0m data strored at slave[ 52] = 1528856544 
# [1;32m[INFO] [0m [1;36m(ID=SCOREBOARD)[0m [1;34m[time = 635][0m READ TRANSFER
# [1;32m[INFO] [0m [1;36m(ID=SCOREBOARD)[0m [1;34m[time = 635][0m  PRESETN = 1 | PSELX = 1 | PWRITE = 0 | PENABLE = 1 | PSTRB = 0 | PREADY = 1 | PRDATA = 1528856544 | PSLVERR = 0 
# [1;32m[INFO] [0m [1;36m(ID=SCOREBOARD)[0m [1;34m[time = 635][0m data stored at slave[ 52] = 1528856544 
# [1;32m[INFO] [0m [1;36m(ID=SCOREBOARD)[0m [1;34m[time = 635][0m ---------------------------------------
# [1;32m[INFO] [0m [1;36m(ID=SCOREBOARD)[0m [1;34m[time = 635][0m ----           TEST PASS           ----
# [1;32m[INFO] [0m [1;36m(ID=SCOREBOARD)[0m [1;34m[time = 635][0m ---------------------------------------
# [1;32m[INFO] [0m [1;36m(ID=SCOREBOARD)[0m [1;34m[time = 685][0m WRITE TRANSFER
# [1;32m[INFO] [0m [1;36m(ID=SCOREBOARD)[0m [1;34m[time = 685][0m  PRESETN = 1 | PSELX = 1 | PWRITE = 1 | PENABLE = 1 | PSTRB = 0 | PREADY = 1 | PRDATA = 1528856544 | PSLVERR = 0 
# [1;32m[INFO] [0m [1;36m(ID=SCOREBOARD)[0m [1;34m[time = 685][0m data strored at slave[  2] = 2059391277 
# [1;32m[INFO] [0m [1;36m(ID=SCOREBOARD)[0m [1;34m[time = 735][0m READ TRANSFER
# [1;32m[INFO] [0m [1;36m(ID=SCOREBOARD)[0m [1;34m[time = 735][0m  PRESETN = 1 | PSELX = 1 | PWRITE = 0 | PENABLE = 1 | PSTRB = 0 | PREADY = 1 | PRDATA = 2059391277 | PSLVERR = 0 
# [1;32m[INFO] [0m [1;36m(ID=SCOREBOARD)[0m [1;34m[time = 735][0m data stored at slave[  2] = 2059391277 
# [1;32m[INFO] [0m [1;36m(ID=SCOREBOARD)[0m [1;34m[time = 735][0m ---------------------------------------
# [1;32m[INFO] [0m [1;36m(ID=SCOREBOARD)[0m [1;34m[time = 735][0m ----           TEST PASS           ----
# [1;32m[INFO] [0m [1;36m(ID=SCOREBOARD)[0m [1;34m[time = 735][0m ---------------------------------------
# [1;32m[INFO] [0m [1;36m(ID=SCOREBOARD)[0m [1;34m[time = 785][0m WRITE TRANSFER
# [1;32m[INFO] [0m [1;36m(ID=SCOREBOARD)[0m [1;34m[time = 785][0m  PRESETN = 1 | PSELX = 1 | PWRITE = 1 | PENABLE = 1 | PSTRB = 0 | PREADY = 1 | PRDATA = 2059391277 | PSLVERR = 0 
# [1;32m[INFO] [0m [1;36m(ID=SCOREBOARD)[0m [1;34m[time = 785][0m data strored at slave[ 51] = 3987945672 
# [1;32m[INFO] [0m [1;36m(ID=SCOREBOARD)[0m [1;34m[time = 835][0m READ TRANSFER
# [1;32m[INFO] [0m [1;36m(ID=SCOREBOARD)[0m [1;34m[time = 835][0m  PRESETN = 1 | PSELX = 1 | PWRITE = 0 | PENABLE = 1 | PSTRB = 0 | PREADY = 1 | PRDATA = 3987945672 | PSLVERR = 0 
# [1;32m[INFO] [0m [1;36m(ID=SCOREBOARD)[0m [1;34m[time = 835][0m data stored at slave[ 51] = 3987945672 
# [1;32m[INFO] [0m [1;36m(ID=SCOREBOARD)[0m [1;34m[time = 835][0m ---------------------------------------
# [1;32m[INFO] [0m [1;36m(ID=SCOREBOARD)[0m [1;34m[time = 835][0m ----           TEST PASS           ----
# [1;32m[INFO] [0m [1;36m(ID=SCOREBOARD)[0m [1;34m[time = 835][0m ---------------------------------------
# [1;32m[INFO] [0m [1;36m(ID=SCOREBOARD)[0m [1;34m[time = 885][0m WRITE TRANSFER
# [1;32m[INFO] [0m [1;36m(ID=SCOREBOARD)[0m [1;34m[time = 885][0m  PRESETN = 1 | PSELX = 1 | PWRITE = 1 | PENABLE = 1 | PSTRB = 0 | PREADY = 1 | PRDATA = 3987945672 | PSLVERR = 0 
# [1;32m[INFO] [0m [1;36m(ID=SCOREBOARD)[0m [1;34m[time = 885][0m data strored at slave[  0] =  969860660 
# [1;32m[INFO] [0m [1;36m(ID=SCOREBOARD)[0m [1;34m[time = 935][0m READ TRANSFER
# [1;32m[INFO] [0m [1;36m(ID=SCOREBOARD)[0m [1;34m[time = 935][0m  PRESETN = 1 | PSELX = 1 | PWRITE = 0 | PENABLE = 1 | PSTRB = 0 | PREADY = 1 | PRDATA = 969860660 | PSLVERR = 0 
# [1;32m[INFO] [0m [1;36m(ID=SCOREBOARD)[0m [1;34m[time = 935][0m data stored at slave[  0] =  969860660 
# [1;32m[INFO] [0m [1;36m(ID=SCOREBOARD)[0m [1;34m[time = 935][0m ---------------------------------------
# [1;32m[INFO] [0m [1;36m(ID=SCOREBOARD)[0m [1;34m[time = 935][0m ----           TEST PASS           ----
# [1;32m[INFO] [0m [1;36m(ID=SCOREBOARD)[0m [1;34m[time = 935][0m ---------------------------------------
# [1;32m[INFO] [0m [1;36m(ID=SCOREBOARD)[0m [1;34m[time = 985][0m WRITE TRANSFER
# [1;32m[INFO] [0m [1;36m(ID=SCOREBOARD)[0m [1;34m[time = 985][0m  PRESETN = 1 | PSELX = 1 | PWRITE = 1 | PENABLE = 1 | PSTRB = 0 | PREADY = 1 | PRDATA = 969860660 | PSLVERR = 0 
# [1;32m[INFO] [0m [1;36m(ID=SCOREBOARD)[0m [1;34m[time = 985][0m data strored at slave[  4] = 1065242217 
# [1;32m[INFO] [0m [1;36m(ID=SCOREBOARD)[0m [1;34m[time = 1035][0m WRITE TRANSFER
# [1;32m[INFO] [0m [1;36m(ID=SCOREBOARD)[0m [1;34m[time = 1035][0m  PRESETN = 1 | PSELX = 1 | PWRITE = 1 | PENABLE = 1 | PSTRB = 0 | PREADY = 1 | PRDATA = 969860660 | PSLVERR = 0 
# [1;32m[INFO] [0m [1;36m(ID=SCOREBOARD)[0m [1;34m[time = 1035][0m data strored at slave[ 56] = 1723805438 
# [1;32m[INFO] [0m [1;36m(ID=SCOREBOARD)[0m [1;34m[time = 1065][0m PRESETN = 0 | PSELX = 0 | PREADY = 0 | PRDATA = 0 | PSLVERR = 0 
# [1;32m[INFO] [0m [1;36m(ID=SCOREBOARD)[0m [1;34m[time = 1065][0m ---------------------------------------
# [1;32m[INFO] [0m [1;36m(ID=SCOREBOARD)[0m [1;34m[time = 1065][0m ----           TEST PASS           ----
# [1;32m[INFO] [0m [1;36m(ID=SCOREBOARD)[0m [1;34m[time = 1065][0m ---------------------------------------
# [1;32m[INFO] [0m [1;36m(ID=SCOREBOARD)[0m [1;34m[time = 1125][0m WRITE TRANSFER
# [1;32m[INFO] [0m [1;36m(ID=SCOREBOARD)[0m [1;34m[time = 1125][0m  PRESETN = 1 | PSELX = 1 | PWRITE = 1 | PENABLE = 1 | PSTRB = 0 | PREADY = 1 | PRDATA = 0 | PSLVERR = 0 
# [1;32m[INFO] [0m [1;36m(ID=SCOREBOARD)[0m [1;34m[time = 1125][0m data strored at slave[  4] = 2043135019 
# [1;32m[INFO] [0m [1;36m(ID=SCOREBOARD)[0m [1;34m[time = 1175][0m WRITE TRANSFER
# [1;32m[INFO] [0m [1;36m(ID=SCOREBOARD)[0m [1;34m[time = 1175][0m  PRESETN = 1 | PSELX = 1 | PWRITE = 1 | PENABLE = 1 | PSTRB = 0 | PREADY = 1 | PRDATA = 0 | PSLVERR = 0 
# [1;32m[INFO] [0m [1;36m(ID=SCOREBOARD)[0m [1;34m[time = 1175][0m data strored at slave[ 58] = 3100824466 
# [1;32m[INFO] [0m [1;36m(ID=SCOREBOARD)[0m [1;34m[time = 1225][0m READ TRANSFER
# [1;32m[INFO] [0m [1;36m(ID=SCOREBOARD)[0m [1;34m[time = 1225][0m  PRESETN = 1 | PSELX = 1 | PWRITE = 0 | PENABLE = 1 | PSTRB = 0 | PREADY = 1 | PRDATA = 2043135019 | PSLVERR = 0 
# [1;32m[INFO] [0m [1;36m(ID=SCOREBOARD)[0m [1;34m[time = 1225][0m data stored at slave[  4] = 2043135019 
# [1;32m[INFO] [0m [1;36m(ID=SCOREBOARD)[0m [1;34m[time = 1225][0m ---------------------------------------
# [1;32m[INFO] [0m [1;36m(ID=SCOREBOARD)[0m [1;34m[time = 1225][0m ----           TEST PASS           ----
# [1;32m[INFO] [0m [1;36m(ID=SCOREBOARD)[0m [1;34m[time = 1225][0m ---------------------------------------
# [1;32m[INFO] [0m [1;36m(ID=SCOREBOARD)[0m [1;34m[time = 1275][0m READ TRANSFER
# [1;32m[INFO] [0m [1;36m(ID=SCOREBOARD)[0m [1;34m[time = 1275][0m  PRESETN = 1 | PSELX = 1 | PWRITE = 0 | PENABLE = 1 | PSTRB = 0 | PREADY = 1 | PRDATA = 0 | PSLVERR = 0 
# [1;32m[INFO] [0m [1;36m(ID=SCOREBOARD)[0m [1;34m[time = 1275][0m data stored at slave[ 56] =          0 
# [1;32m[INFO] [0m [1;36m(ID=SCOREBOARD)[0m [1;34m[time = 1275][0m ---------------------------------------
# [1;32m[INFO] [0m [1;36m(ID=SCOREBOARD)[0m [1;34m[time = 1275][0m ----           TEST FAIL           ----
# [1;32m[INFO] [0m [1;36m(ID=SCOREBOARD)[0m [1;34m[time = 1275][0m ---------------------------------------
# [1;32m[INFO] [0m [1;36m(ID=SCOREBOARD)[0m [1;34m[time = 1305][0m PRESETN = 0 | PSELX = 1 | PREADY = 0 | PRDATA = 0 | PSLVERR = 0 
# [1;32m[INFO] [0m [1;36m(ID=SCOREBOARD)[0m [1;34m[time = 1305][0m ---------------------------------------
# [1;32m[INFO] [0m [1;36m(ID=SCOREBOARD)[0m [1;34m[time = 1305][0m ----           TEST PASS           ----
# [1;32m[INFO] [0m [1;36m(ID=SCOREBOARD)[0m [1;34m[time = 1305][0m ---------------------------------------
# [1;32m[INFO] [0m [1;36m(ID=SCOREBOARD)[0m [1;34m[time = 1365][0m READ TRANSFER
# [1;32m[INFO] [0m [1;36m(ID=SCOREBOARD)[0m [1;34m[time = 1365][0m  PRESETN = 1 | PSELX = 1 | PWRITE = 0 | PENABLE = 1 | PSTRB = 0 | PREADY = 1 | PRDATA = 0 | PSLVERR = 0 
# [1;32m[INFO] [0m [1;36m(ID=SCOREBOARD)[0m [1;34m[time = 1365][0m data stored at slave[  4] =          0 
# [1;32m[INFO] [0m [1;36m(ID=SCOREBOARD)[0m [1;34m[time = 1365][0m ---------------------------------------
# [1;32m[INFO] [0m [1;36m(ID=SCOREBOARD)[0m [1;34m[time = 1365][0m ----           TEST FAIL           ----
# [1;32m[INFO] [0m [1;36m(ID=SCOREBOARD)[0m [1;34m[time = 1365][0m ---------------------------------------
# [1;32m[INFO] [0m [1;36m(ID=SCOREBOARD)[0m [1;34m[time = 1415][0m READ TRANSFER
# [1;32m[INFO] [0m [1;36m(ID=SCOREBOARD)[0m [1;34m[time = 1415][0m  PRESETN = 1 | PSELX = 1 | PWRITE = 0 | PENABLE = 1 | PSTRB = 0 | PREADY = 1 | PRDATA = 0 | PSLVERR = 0 
# [1;32m[INFO] [0m [1;36m(ID=SCOREBOARD)[0m [1;34m[time = 1415][0m data stored at slave[ 58] =          0 
# [1;32m[INFO] [0m [1;36m(ID=SCOREBOARD)[0m [1;34m[time = 1415][0m ---------------------------------------
# [1;32m[INFO] [0m [1;36m(ID=SCOREBOARD)[0m [1;34m[time = 1415][0m ----           TEST FAIL           ----
# [1;32m[INFO] [0m [1;36m(ID=SCOREBOARD)[0m [1;34m[time = 1415][0m ---------------------------------------
# ** Error: SLAVE ERROR NOT ASSERTED FOR OUT OF RANGE ADDRESS!
#    Time: 1455 ns Started: 1445 ns  Scope: top.vif.ASSERT File: apb_master_assertions.sv Line: 173 Expr: PSLVERR
# [1;32m[INFO] [0m [1;36m(ID=SCOREBOARD)[0m [1;34m[time = 1465][0m WRITE TRANSFER
# [1;32m[INFO] [0m [1;36m(ID=SCOREBOARD)[0m [1;34m[time = 1465][0m  PRESETN = 1 | PSELX = 1 | PWRITE = 1 | PENABLE = 1 | PSTRB = 0 | PREADY = 1 | PRDATA = 0 | PSLVERR = 1 
# [1;32m[INFO] [0m [1;36m(ID=SCOREBOARD)[0m [1;34m[time = 1465][0m data strored at slave[233] = 1241633816 
# [1;32m[INFO] [0m [1;36m(ID=SCOREBOARD)[0m [1;34m[time = 1465][0m SLAVE ERROR CHECK
# [1;32m[INFO] [0m [1;36m(ID=SCOREBOARD)[0m [1;34m[time = 1465][0m  PRESETN = 1 | PSELX = 1 | PWRITE = 1 | PENABLE = 1 | PREADY = 1 | PRDATA = 0 | PSLVERR = 1 
# [1;32m[INFO] [0m [1;36m(ID=SCOREBOARD)[0m [1;34m[time = 1465][0m data stored at slave[233] =          0 
# [1;32m[INFO] [0m [1;36m(ID=SCOREBOARD)[0m [1;34m[time = 1465][0m ---------------------------------------
# [1;32m[INFO] [0m [1;36m(ID=SCOREBOARD)[0m [1;34m[time = 1465][0m ----           TEST PASS           ----
# [1;32m[INFO] [0m [1;36m(ID=SCOREBOARD)[0m [1;34m[time = 1465][0m ---------------------------------------
# ** Error: SLAVE ERROR NOT ASSERTED FOR OUT OF RANGE ADDRESS!
#    Time: 1465 ns Started: 1455 ns  Scope: top.vif.ASSERT File: apb_master_assertions.sv Line: 173 Expr: PSLVERR
# ** Error: SLAVE ERROR NOT ASSERTED FOR OUT OF RANGE ADDRESS!
#    Time: 1485 ns Started: 1475 ns  Scope: top.vif.ASSERT File: apb_master_assertions.sv Line: 173 Expr: PSLVERR
# [1;32m[INFO] [0m [1;36m(ID=SCOREBOARD)[0m [1;34m[time = 1495][0m SLAVE ERROR CHECK
# [1;32m[INFO] [0m [1;36m(ID=SCOREBOARD)[0m [1;34m[time = 1495][0m  PRESETN = 1 | PSELX = 1 | PWRITE = 1 | PENABLE = 1 | PREADY = 0 | PRDATA = 0 | PSLVERR = 0 
# [1;32m[INFO] [0m [1;36m(ID=SCOREBOARD)[0m [1;34m[time = 1495][0m data stored at slave[233] =          0 
# [1;32m[INFO] [0m [1;36m(ID=SCOREBOARD)[0m [1;34m[time = 1495][0m ---------------------------------------
# [1;32m[INFO] [0m [1;36m(ID=SCOREBOARD)[0m [1;34m[time = 1495][0m ----           TEST FAIL           ----
# [1;32m[INFO] [0m [1;36m(ID=SCOREBOARD)[0m [1;34m[time = 1495][0m ---------------------------------------
# ** Error: SLAVE ERROR NOT ASSERTED FOR OUT OF RANGE ADDRESS!
#    Time: 1495 ns Started: 1485 ns  Scope: top.vif.ASSERT File: apb_master_assertions.sv Line: 173 Expr: PSLVERR
# ** Error: SLAVE ERROR NOT ASSERTED FOR OUT OF RANGE ADDRESS!
#    Time: 1505 ns Started: 1495 ns  Scope: top.vif.ASSERT File: apb_master_assertions.sv Line: 173 Expr: PSLVERR
# [1;32m[INFO] [0m [1;36m(ID=SCOREBOARD)[0m [1;34m[time = 1515][0m READ TRANSFER
# [1;32m[INFO] [0m [1;36m(ID=SCOREBOARD)[0m [1;34m[time = 1515][0m  PRESETN = 1 | PSELX = 1 | PWRITE = 0 | PENABLE = 1 | PSTRB = 0 | PREADY = 1 | PRDATA = 0 | PSLVERR = 1 
# [1;32m[INFO] [0m [1;36m(ID=SCOREBOARD)[0m [1;34m[time = 1515][0m data stored at slave[246] =          0 
# [1;32m[INFO] [0m [1;36m(ID=SCOREBOARD)[0m [1;34m[time = 1515][0m ---------------------------------------
# [1;32m[INFO] [0m [1;36m(ID=SCOREBOARD)[0m [1;34m[time = 1515][0m ----           TEST FAIL           ----
# [1;32m[INFO] [0m [1;36m(ID=SCOREBOARD)[0m [1;34m[time = 1515][0m ---------------------------------------
# [1;32m[INFO] [0m [1;36m(ID=SCOREBOARD)[0m [1;34m[time = 1515][0m SLAVE ERROR CHECK
# [1;32m[INFO] [0m [1;36m(ID=SCOREBOARD)[0m [1;34m[time = 1515][0m  PRESETN = 1 | PSELX = 1 | PWRITE = 0 | PENABLE = 1 | PREADY = 1 | PRDATA = 0 | PSLVERR = 1 
# [1;32m[INFO] [0m [1;36m(ID=SCOREBOARD)[0m [1;34m[time = 1515][0m data stored at slave[246] =          0 
# [1;32m[INFO] [0m [1;36m(ID=SCOREBOARD)[0m [1;34m[time = 1515][0m ---------------------------------------
# [1;32m[INFO] [0m [1;36m(ID=SCOREBOARD)[0m [1;34m[time = 1515][0m ----           TEST PASS           ----
# [1;32m[INFO] [0m [1;36m(ID=SCOREBOARD)[0m [1;34m[time = 1515][0m ---------------------------------------
# ** Error: SLAVE ERROR NOT ASSERTED FOR OUT OF RANGE ADDRESS!
#    Time: 1515 ns Started: 1505 ns  Scope: top.vif.ASSERT File: apb_master_assertions.sv Line: 173 Expr: PSLVERR
# ** Error: SLAVE ERROR NOT ASSERTED FOR OUT OF RANGE ADDRESS!
#    Time: 1535 ns Started: 1525 ns  Scope: top.vif.ASSERT File: apb_master_assertions.sv Line: 173 Expr: PSLVERR
# [1;32m[INFO] [0m [1;36m(ID=SCOREBOARD)[0m [1;34m[time = 1545][0m SLAVE ERROR CHECK
# [1;32m[INFO] [0m [1;36m(ID=SCOREBOARD)[0m [1;34m[time = 1545][0m  PRESETN = 1 | PSELX = 1 | PWRITE = 0 | PENABLE = 1 | PREADY = 0 | PRDATA = 0 | PSLVERR = 0 
# [1;32m[INFO] [0m [1;36m(ID=SCOREBOARD)[0m [1;34m[time = 1545][0m data stored at slave[246] =          0 
# [1;32m[INFO] [0m [1;36m(ID=SCOREBOARD)[0m [1;34m[time = 1545][0m ---------------------------------------
# [1;32m[INFO] [0m [1;36m(ID=SCOREBOARD)[0m [1;34m[time = 1545][0m ----           TEST FAIL           ----
# [1;32m[INFO] [0m [1;36m(ID=SCOREBOARD)[0m [1;34m[time = 1545][0m ---------------------------------------
# ** Error: SLAVE ERROR NOT ASSERTED FOR OUT OF RANGE ADDRESS!
#    Time: 1545 ns Started: 1535 ns  Scope: top.vif.ASSERT File: apb_master_assertions.sv Line: 173 Expr: PSLVERR
# [1;32m[INFO] [0m [1;36m(ID=SCOREBOARD)[0m [1;34m[time = 1565][0m WRITE TRANSFER
# [1;32m[INFO] [0m [1;36m(ID=SCOREBOARD)[0m [1;34m[time = 1565][0m  PRESETN = 1 | PSELX = 1 | PWRITE = 1 | PENABLE = 1 | PSTRB = 0 | PREADY = 1 | PRDATA = 0 | PSLVERR = 0 
# [1;32m[INFO] [0m [1;36m(ID=SCOREBOARD)[0m [1;34m[time = 1565][0m data strored at slave[185] = 1725853359 
# [1;32m[INFO] [0m [1;36m(ID=SCOREBOARD)[0m [1;34m[time = 1615][0m WRITE TRANSFER
# [1;32m[INFO] [0m [1;36m(ID=SCOREBOARD)[0m [1;34m[time = 1615][0m  PRESETN = 1 | PSELX = 1 | PWRITE = 1 | PENABLE = 1 | PSTRB = 1 | PREADY = 1 | PRDATA = 0 | PSLVERR = 0 
# [1;32m[INFO] [0m [1;36m(ID=SCOREBOARD)[0m [1;34m[time = 1615][0m data strored at slave[185] = 4270950084 
# [1;32m[INFO] [0m [1;36m(ID=SCOREBOARD)[0m [1;34m[time = 1615][0m  PSTRB WRITE: ADDR = 185 | PSTRB = 1 | OLD_DATA = 1725853359 | NEW_DATA = 1725853380 
# [1;32m[INFO] [0m [1;36m(ID=SCOREBOARD)[0m [1;34m[time = 1665][0m READ TRANSFER
# [1;32m[INFO] [0m [1;36m(ID=SCOREBOARD)[0m [1;34m[time = 1665][0m  PRESETN = 1 | PSELX = 1 | PWRITE = 0 | PENABLE = 1 | PSTRB = 0 | PREADY = 1 | PRDATA = 1725853380 | PSLVERR = 0 
# [1;32m[INFO] [0m [1;36m(ID=SCOREBOARD)[0m [1;34m[time = 1665][0m data stored at slave[185] = 1725853380 
# [1;32m[INFO] [0m [1;36m(ID=SCOREBOARD)[0m [1;34m[time = 1665][0m ---------------------------------------
# [1;32m[INFO] [0m [1;36m(ID=SCOREBOARD)[0m [1;34m[time = 1665][0m ----           TEST PASS           ----
# [1;32m[INFO] [0m [1;36m(ID=SCOREBOARD)[0m [1;34m[time = 1665][0m ---------------------------------------
# [1;32m[INFO] [0m [1;36m(ID=SCOREBOARD)[0m [1;34m[time = 1715][0m WRITE TRANSFER
# [1;32m[INFO] [0m [1;36m(ID=SCOREBOARD)[0m [1;34m[time = 1715][0m  PRESETN = 1 | PSELX = 1 | PWRITE = 1 | PENABLE = 1 | PSTRB = 2 | PREADY = 1 | PRDATA = 1725853380 | PSLVERR = 0 
# [1;32m[INFO] [0m [1;36m(ID=SCOREBOARD)[0m [1;34m[time = 1715][0m data strored at slave[185] = 3401238340 
# [1;32m[INFO] [0m [1;36m(ID=SCOREBOARD)[0m [1;34m[time = 1715][0m  PSTRB WRITE: ADDR = 185 | PSTRB = 2 | OLD_DATA = 1725853380 | NEW_DATA = 1725876164 
# [1;32m[INFO] [0m [1;36m(ID=SCOREBOARD)[0m [1;34m[time = 1765][0m READ TRANSFER
# [1;32m[INFO] [0m [1;36m(ID=SCOREBOARD)[0m [1;34m[time = 1765][0m  PRESETN = 1 | PSELX = 1 | PWRITE = 0 | PENABLE = 1 | PSTRB = 0 | PREADY = 1 | PRDATA = 1725876164 | PSLVERR = 0 
# [1;32m[INFO] [0m [1;36m(ID=SCOREBOARD)[0m [1;34m[time = 1765][0m data stored at slave[185] = 1725876164 
# [1;32m[INFO] [0m [1;36m(ID=SCOREBOARD)[0m [1;34m[time = 1765][0m ---------------------------------------
# [1;32m[INFO] [0m [1;36m(ID=SCOREBOARD)[0m [1;34m[time = 1765][0m ----           TEST PASS           ----
# [1;32m[INFO] [0m [1;36m(ID=SCOREBOARD)[0m [1;34m[time = 1765][0m ---------------------------------------
# [1;32m[INFO] [0m [1;36m(ID=SCOREBOARD)[0m [1;34m[time = 1815][0m WRITE TRANSFER
# [1;32m[INFO] [0m [1;36m(ID=SCOREBOARD)[0m [1;34m[time = 1815][0m  PRESETN = 1 | PSELX = 1 | PWRITE = 1 | PENABLE = 1 | PSTRB = 4 | PREADY = 1 | PRDATA = 1725876164 | PSLVERR = 0 
# [1;32m[INFO] [0m [1;36m(ID=SCOREBOARD)[0m [1;34m[time = 1815][0m data strored at slave[185] = 2560407546 
# [1;32m[INFO] [0m [1;36m(ID=SCOREBOARD)[0m [1;34m[time = 1815][0m  PSTRB WRITE: ADDR = 185 | PSTRB = 4 | OLD_DATA = 1725876164 | NEW_DATA = 1721550788 
# [1;32m[INFO] [0m [1;36m(ID=SCOREBOARD)[0m [1;34m[time = 1865][0m READ TRANSFER
# [1;32m[INFO] [0m [1;36m(ID=SCOREBOARD)[0m [1;34m[time = 1865][0m  PRESETN = 1 | PSELX = 1 | PWRITE = 0 | PENABLE = 1 | PSTRB = 0 | PREADY = 1 | PRDATA = 1721550788 | PSLVERR = 0 
# [1;32m[INFO] [0m [1;36m(ID=SCOREBOARD)[0m [1;34m[time = 1865][0m data stored at slave[185] = 1721550788 
# [1;32m[INFO] [0m [1;36m(ID=SCOREBOARD)[0m [1;34m[time = 1865][0m ---------------------------------------
# [1;32m[INFO] [0m [1;36m(ID=SCOREBOARD)[0m [1;34m[time = 1865][0m ----           TEST PASS           ----
# [1;32m[INFO] [0m [1;36m(ID=SCOREBOARD)[0m [1;34m[time = 1865][0m ---------------------------------------
# [1;32m[INFO] [0m [1;36m(ID=SCOREBOARD)[0m [1;34m[time = 1915][0m WRITE TRANSFER
# [1;32m[INFO] [0m [1;36m(ID=SCOREBOARD)[0m [1;34m[time = 1915][0m  PRESETN = 1 | PSELX = 1 | PWRITE = 1 | PENABLE = 1 | PSTRB = 8 | PREADY = 1 | PRDATA = 1721550788 | PSLVERR = 0 
# [1;32m[INFO] [0m [1;36m(ID=SCOREBOARD)[0m [1;34m[time = 1915][0m data strored at slave[185] = 4155782200 
# [1;32m[INFO] [0m [1;36m(ID=SCOREBOARD)[0m [1;34m[time = 1915][0m  PSTRB WRITE: ADDR = 185 | PSTRB = 8 | OLD_DATA = 1721550788 | NEW_DATA = 4154247108 
# [1;32m[INFO] [0m [1;36m(ID=SCOREBOARD)[0m [1;34m[time = 1965][0m READ TRANSFER
# [1;32m[INFO] [0m [1;36m(ID=SCOREBOARD)[0m [1;34m[time = 1965][0m  PRESETN = 1 | PSELX = 1 | PWRITE = 0 | PENABLE = 1 | PSTRB = 0 | PREADY = 1 | PRDATA = 4154247108 | PSLVERR = 0 
# [1;32m[INFO] [0m [1;36m(ID=SCOREBOARD)[0m [1;34m[time = 1965][0m data stored at slave[185] = 4154247108 
# [1;32m[INFO] [0m [1;36m(ID=SCOREBOARD)[0m [1;34m[time = 1965][0m ---------------------------------------
# [1;32m[INFO] [0m [1;36m(ID=SCOREBOARD)[0m [1;34m[time = 1965][0m ----           TEST PASS           ----
# [1;32m[INFO] [0m [1;36m(ID=SCOREBOARD)[0m [1;34m[time = 1965][0m ---------------------------------------
# [1;32m[INFO] [0m [1;36m(ID=SCOREBOARD)[0m [1;34m[time = 2015][0m WRITE TRANSFER
# [1;32m[INFO] [0m [1;36m(ID=SCOREBOARD)[0m [1;34m[time = 2015][0m  PRESETN = 1 | PSELX = 1 | PWRITE = 1 | PENABLE = 1 | PSTRB = 0 | PREADY = 1 | PRDATA = 4154247108 | PSLVERR = 0 
# [1;32m[INFO] [0m [1;36m(ID=SCOREBOARD)[0m [1;34m[time = 2015][0m data strored at slave[  9] = 2872313202 
# [1;32m[INFO] [0m [1;36m(ID=SCOREBOARD)[0m [1;34m[time = 2065][0m WRITE TRANSFER
# [1;32m[INFO] [0m [1;36m(ID=SCOREBOARD)[0m [1;34m[time = 2065][0m  PRESETN = 1 | PSELX = 1 | PWRITE = 1 | PENABLE = 1 | PSTRB = 1 | PREADY = 1 | PRDATA = 4154247108 | PSLVERR = 0 
# [1;32m[INFO] [0m [1;36m(ID=SCOREBOARD)[0m [1;34m[time = 2065][0m data strored at slave[  9] = 2948930666 
# [1;32m[INFO] [0m [1;36m(ID=SCOREBOARD)[0m [1;34m[time = 2065][0m  PSTRB WRITE: ADDR = 9 | PSTRB = 1 | OLD_DATA = 2872313202 | NEW_DATA = 2872313194 
# [1;32m[INFO] [0m [1;36m(ID=SCOREBOARD)[0m [1;34m[time = 2115][0m READ TRANSFER
# [1;32m[INFO] [0m [1;36m(ID=SCOREBOARD)[0m [1;34m[time = 2115][0m  PRESETN = 1 | PSELX = 1 | PWRITE = 0 | PENABLE = 1 | PSTRB = 0 | PREADY = 1 | PRDATA = 2872313194 | PSLVERR = 0 
# [1;32m[INFO] [0m [1;36m(ID=SCOREBOARD)[0m [1;34m[time = 2115][0m data stored at slave[  9] = 2872313194 
# [1;32m[INFO] [0m [1;36m(ID=SCOREBOARD)[0m [1;34m[time = 2115][0m ---------------------------------------
# [1;32m[INFO] [0m [1;36m(ID=SCOREBOARD)[0m [1;34m[time = 2115][0m ----           TEST PASS           ----
# [1;32m[INFO] [0m [1;36m(ID=SCOREBOARD)[0m [1;34m[time = 2115][0m ---------------------------------------
# [1;32m[INFO] [0m [1;36m(ID=SCOREBOARD)[0m [1;34m[time = 2165][0m WRITE TRANSFER
# [1;32m[INFO] [0m [1;36m(ID=SCOREBOARD)[0m [1;34m[time = 2165][0m  PRESETN = 1 | PSELX = 1 | PWRITE = 1 | PENABLE = 1 | PSTRB = 2 | PREADY = 1 | PRDATA = 2872313194 | PSLVERR = 0 
# [1;32m[INFO] [0m [1;36m(ID=SCOREBOARD)[0m [1;34m[time = 2165][0m data strored at slave[  9] = 1533019268 
# [1;32m[INFO] [0m [1;36m(ID=SCOREBOARD)[0m [1;34m[time = 2165][0m  PSTRB WRITE: ADDR = 9 | PSTRB = 2 | OLD_DATA = 2872313194 | NEW_DATA = 2872312938 
# [1;32m[INFO] [0m [1;36m(ID=SCOREBOARD)[0m [1;34m[time = 2215][0m READ TRANSFER
# [1;32m[INFO] [0m [1;36m(ID=SCOREBOARD)[0m [1;34m[time = 2215][0m  PRESETN = 1 | PSELX = 1 | PWRITE = 0 | PENABLE = 1 | PSTRB = 0 | PREADY = 1 | PRDATA = 2872312938 | PSLVERR = 0 
# [1;32m[INFO] [0m [1;36m(ID=SCOREBOARD)[0m [1;34m[time = 2215][0m data stored at slave[  9] = 2872312938 
# [1;32m[INFO] [0m [1;36m(ID=SCOREBOARD)[0m [1;34m[time = 2215][0m ---------------------------------------
# [1;32m[INFO] [0m [1;36m(ID=SCOREBOARD)[0m [1;34m[time = 2215][0m ----           TEST PASS           ----
# [1;32m[INFO] [0m [1;36m(ID=SCOREBOARD)[0m [1;34m[time = 2215][0m ---------------------------------------
# [1;32m[INFO] [0m [1;36m(ID=SCOREBOARD)[0m [1;34m[time = 2265][0m WRITE TRANSFER
# [1;32m[INFO] [0m [1;36m(ID=SCOREBOARD)[0m [1;34m[time = 2265][0m  PRESETN = 1 | PSELX = 1 | PWRITE = 1 | PENABLE = 1 | PSTRB = 4 | PREADY = 1 | PRDATA = 2872312938 | PSLVERR = 0 
# [1;32m[INFO] [0m [1;36m(ID=SCOREBOARD)[0m [1;34m[time = 2265][0m data strored at slave[  9] = 3436485288 
# [1;32m[INFO] [0m [1;36m(ID=SCOREBOARD)[0m [1;34m[time = 2265][0m  PSTRB WRITE: ADDR = 9 | PSTRB = 4 | OLD_DATA = 2872312938 | NEW_DATA = 2882798698 
# [1;32m[INFO] [0m [1;36m(ID=SCOREBOARD)[0m [1;34m[time = 2315][0m READ TRANSFER
# [1;32m[INFO] [0m [1;36m(ID=SCOREBOARD)[0m [1;34m[time = 2315][0m  PRESETN = 1 | PSELX = 1 | PWRITE = 0 | PENABLE = 1 | PSTRB = 0 | PREADY = 1 | PRDATA = 2882798698 | PSLVERR = 0 
# [1;32m[INFO] [0m [1;36m(ID=SCOREBOARD)[0m [1;34m[time = 2315][0m data stored at slave[  9] = 2882798698 
# [1;32m[INFO] [0m [1;36m(ID=SCOREBOARD)[0m [1;34m[time = 2315][0m ---------------------------------------
# [1;32m[INFO] [0m [1;36m(ID=SCOREBOARD)[0m [1;34m[time = 2315][0m ----           TEST PASS           ----
# [1;32m[INFO] [0m [1;36m(ID=SCOREBOARD)[0m [1;34m[time = 2315][0m ---------------------------------------
# [1;32m[INFO] [0m [1;36m(ID=SCOREBOARD)[0m [1;34m[time = 2365][0m WRITE TRANSFER
# [1;32m[INFO] [0m [1;36m(ID=SCOREBOARD)[0m [1;34m[time = 2365][0m  PRESETN = 1 | PSELX = 1 | PWRITE = 1 | PENABLE = 1 | PSTRB = 8 | PREADY = 1 | PRDATA = 2882798698 | PSLVERR = 0 
# [1;32m[INFO] [0m [1;36m(ID=SCOREBOARD)[0m [1;34m[time = 2365][0m data strored at slave[  9] =    1510113 
# [1;32m[INFO] [0m [1;36m(ID=SCOREBOARD)[0m [1;34m[time = 2365][0m  PSTRB WRITE: ADDR = 9 | PSTRB = 8 | OLD_DATA = 2882798698 | NEW_DATA = 13894762 
# [1;32m[INFO] [0m [1;36m(ID=SCOREBOARD)[0m [1;34m[time = 2415][0m READ TRANSFER
# [1;32m[INFO] [0m [1;36m(ID=SCOREBOARD)[0m [1;34m[time = 2415][0m  PRESETN = 1 | PSELX = 1 | PWRITE = 0 | PENABLE = 1 | PSTRB = 0 | PREADY = 1 | PRDATA = 13894762 | PSLVERR = 0 
# [1;32m[INFO] [0m [1;36m(ID=SCOREBOARD)[0m [1;34m[time = 2415][0m data stored at slave[  9] =   13894762 
# [1;32m[INFO] [0m [1;36m(ID=SCOREBOARD)[0m [1;34m[time = 2415][0m ---------------------------------------
# [1;32m[INFO] [0m [1;36m(ID=SCOREBOARD)[0m [1;34m[time = 2415][0m ----           TEST PASS           ----
# [1;32m[INFO] [0m [1;36m(ID=SCOREBOARD)[0m [1;34m[time = 2415][0m ---------------------------------------
# [1;32m[INFO] [0m [1;36m(ID=SCOREBOARD)[0m [1;34m[time = 2465][0m WRITE TRANSFER
# [1;32m[INFO] [0m [1;36m(ID=SCOREBOARD)[0m [1;34m[time = 2465][0m  PRESETN = 1 | PSELX = 1 | PWRITE = 1 | PENABLE = 1 | PSTRB = 0 | PREADY = 1 | PRDATA = 13894762 | PSLVERR = 0 
# [1;32m[INFO] [0m [1;36m(ID=SCOREBOARD)[0m [1;34m[time = 2465][0m data strored at slave[156] =  375054418 
# [1;32m[INFO] [0m [1;36m(ID=SCOREBOARD)[0m [1;34m[time = 2515][0m WRITE TRANSFER
# [1;32m[INFO] [0m [1;36m(ID=SCOREBOARD)[0m [1;34m[time = 2515][0m  PRESETN = 1 | PSELX = 1 | PWRITE = 1 | PENABLE = 1 | PSTRB = 1 | PREADY = 1 | PRDATA = 13894762 | PSLVERR = 0 
# [1;32m[INFO] [0m [1;36m(ID=SCOREBOARD)[0m [1;34m[time = 2515][0m data strored at slave[156] =  111291838 
# [1;32m[INFO] [0m [1;36m(ID=SCOREBOARD)[0m [1;34m[time = 2515][0m  PSTRB WRITE: ADDR = 156 | PSTRB = 1 | OLD_DATA = 375054418 | NEW_DATA = 375054526 
# [1;32m[INFO] [0m [1;36m(ID=SCOREBOARD)[0m [1;34m[time = 2565][0m READ TRANSFER
# [1;32m[INFO] [0m [1;36m(ID=SCOREBOARD)[0m [1;34m[time = 2565][0m  PRESETN = 1 | PSELX = 1 | PWRITE = 0 | PENABLE = 1 | PSTRB = 0 | PREADY = 1 | PRDATA = 375054526 | PSLVERR = 0 
# [1;32m[INFO] [0m [1;36m(ID=SCOREBOARD)[0m [1;34m[time = 2565][0m data stored at slave[156] =  375054526 
# [1;32m[INFO] [0m [1;36m(ID=SCOREBOARD)[0m [1;34m[time = 2565][0m ---------------------------------------
# [1;32m[INFO] [0m [1;36m(ID=SCOREBOARD)[0m [1;34m[time = 2565][0m ----           TEST PASS           ----
# [1;32m[INFO] [0m [1;36m(ID=SCOREBOARD)[0m [1;34m[time = 2565][0m ---------------------------------------
# [1;32m[INFO] [0m [1;36m(ID=SCOREBOARD)[0m [1;34m[time = 2615][0m WRITE TRANSFER
# [1;32m[INFO] [0m [1;36m(ID=SCOREBOARD)[0m [1;34m[time = 2615][0m  PRESETN = 1 | PSELX = 1 | PWRITE = 1 | PENABLE = 1 | PSTRB = 2 | PREADY = 1 | PRDATA = 375054526 | PSLVERR = 0 
# [1;32m[INFO] [0m [1;36m(ID=SCOREBOARD)[0m [1;34m[time = 2615][0m data strored at slave[156] = 3707229610 
# [1;32m[INFO] [0m [1;36m(ID=SCOREBOARD)[0m [1;34m[time = 2615][0m  PSTRB WRITE: ADDR = 156 | PSTRB = 2 | OLD_DATA = 375054526 | NEW_DATA = 375051710 
# [1;32m[INFO] [0m [1;36m(ID=SCOREBOARD)[0m [1;34m[time = 2665][0m READ TRANSFER
# [1;32m[INFO] [0m [1;36m(ID=SCOREBOARD)[0m [1;34m[time = 2665][0m  PRESETN = 1 | PSELX = 1 | PWRITE = 0 | PENABLE = 1 | PSTRB = 0 | PREADY = 1 | PRDATA = 375051710 | PSLVERR = 0 
# [1;32m[INFO] [0m [1;36m(ID=SCOREBOARD)[0m [1;34m[time = 2665][0m data stored at slave[156] =  375051710 
# [1;32m[INFO] [0m [1;36m(ID=SCOREBOARD)[0m [1;34m[time = 2665][0m ---------------------------------------
# [1;32m[INFO] [0m [1;36m(ID=SCOREBOARD)[0m [1;34m[time = 2665][0m ----           TEST PASS           ----
# [1;32m[INFO] [0m [1;36m(ID=SCOREBOARD)[0m [1;34m[time = 2665][0m ---------------------------------------
# [1;32m[INFO] [0m [1;36m(ID=SCOREBOARD)[0m [1;34m[time = 2715][0m WRITE TRANSFER
# [1;32m[INFO] [0m [1;36m(ID=SCOREBOARD)[0m [1;34m[time = 2715][0m  PRESETN = 1 | PSELX = 1 | PWRITE = 1 | PENABLE = 1 | PSTRB = 4 | PREADY = 1 | PRDATA = 375051710 | PSLVERR = 0 
# [1;32m[INFO] [0m [1;36m(ID=SCOREBOARD)[0m [1;34m[time = 2715][0m data strored at slave[156] = 4187118964 
# [1;32m[INFO] [0m [1;36m(ID=SCOREBOARD)[0m [1;34m[time = 2715][0m  PSTRB WRITE: ADDR = 156 | PSTRB = 4 | OLD_DATA = 375051710 | NEW_DATA = 378721726 
# [1;32m[INFO] [0m [1;36m(ID=SCOREBOARD)[0m [1;34m[time = 2765][0m READ TRANSFER
# [1;32m[INFO] [0m [1;36m(ID=SCOREBOARD)[0m [1;34m[time = 2765][0m  PRESETN = 1 | PSELX = 1 | PWRITE = 0 | PENABLE = 1 | PSTRB = 0 | PREADY = 1 | PRDATA = 378721726 | PSLVERR = 0 
# [1;32m[INFO] [0m [1;36m(ID=SCOREBOARD)[0m [1;34m[time = 2765][0m data stored at slave[156] =  378721726 
# [1;32m[INFO] [0m [1;36m(ID=SCOREBOARD)[0m [1;34m[time = 2765][0m ---------------------------------------
# [1;32m[INFO] [0m [1;36m(ID=SCOREBOARD)[0m [1;34m[time = 2765][0m ----           TEST PASS           ----
# [1;32m[INFO] [0m [1;36m(ID=SCOREBOARD)[0m [1;34m[time = 2765][0m ---------------------------------------
# [1;32m[INFO] [0m [1;36m(ID=SCOREBOARD)[0m [1;34m[time = 2815][0m WRITE TRANSFER
# [1;32m[INFO] [0m [1;36m(ID=SCOREBOARD)[0m [1;34m[time = 2815][0m  PRESETN = 1 | PSELX = 1 | PWRITE = 1 | PENABLE = 1 | PSTRB = 8 | PREADY = 1 | PRDATA = 378721726 | PSLVERR = 0 
# [1;32m[INFO] [0m [1;36m(ID=SCOREBOARD)[0m [1;34m[time = 2815][0m data strored at slave[156] = 2419173600 
# [1;32m[INFO] [0m [1;36m(ID=SCOREBOARD)[0m [1;34m[time = 2815][0m  PSTRB WRITE: ADDR = 156 | PSTRB = 8 | OLD_DATA = 378721726 | NEW_DATA = 2425542078 
# [1;32m[INFO] [0m [1;36m(ID=SCOREBOARD)[0m [1;34m[time = 2865][0m READ TRANSFER
# [1;32m[INFO] [0m [1;36m(ID=SCOREBOARD)[0m [1;34m[time = 2865][0m  PRESETN = 1 | PSELX = 1 | PWRITE = 0 | PENABLE = 1 | PSTRB = 0 | PREADY = 1 | PRDATA = 2425542078 | PSLVERR = 0 
# [1;32m[INFO] [0m [1;36m(ID=SCOREBOARD)[0m [1;34m[time = 2865][0m data stored at slave[156] = 2425542078 
# [1;32m[INFO] [0m [1;36m(ID=SCOREBOARD)[0m [1;34m[time = 2865][0m ---------------------------------------
# [1;32m[INFO] [0m [1;36m(ID=SCOREBOARD)[0m [1;34m[time = 2865][0m ----           TEST PASS           ----
# [1;32m[INFO] [0m [1;36m(ID=SCOREBOARD)[0m [1;34m[time = 2865][0m ---------------------------------------
# [1;32m[INFO] [0m [1;36m(ID=SCOREBOARD)[0m [1;34m[time = 2915][0m WRITE TRANSFER
# [1;32m[INFO] [0m [1;36m(ID=SCOREBOARD)[0m [1;34m[time = 2915][0m  PRESETN = 1 | PSELX = 1 | PWRITE = 1 | PENABLE = 1 | PSTRB = 0 | PREADY = 1 | PRDATA = 2425542078 | PSLVERR = 0 
# [1;32m[INFO] [0m [1;36m(ID=SCOREBOARD)[0m [1;34m[time = 2915][0m data strored at slave[ 58] = 4156894499 
# [1;32m[INFO] [0m [1;36m(ID=SCOREBOARD)[0m [1;34m[time = 2965][0m WRITE TRANSFER
# [1;32m[INFO] [0m [1;36m(ID=SCOREBOARD)[0m [1;34m[time = 2965][0m  PRESETN = 1 | PSELX = 1 | PWRITE = 1 | PENABLE = 1 | PSTRB = 1 | PREADY = 1 | PRDATA = 2425542078 | PSLVERR = 0 
# [1;32m[INFO] [0m [1;36m(ID=SCOREBOARD)[0m [1;34m[time = 2965][0m data strored at slave[ 58] = 1833715917 
# [1;32m[INFO] [0m [1;36m(ID=SCOREBOARD)[0m [1;34m[time = 2965][0m  PSTRB WRITE: ADDR = 58 | PSTRB = 1 | OLD_DATA = 4156894499 | NEW_DATA = 4156894669 
# [1;32m[INFO] [0m [1;36m(ID=SCOREBOARD)[0m [1;34m[time = 3015][0m READ TRANSFER
# [1;32m[INFO] [0m [1;36m(ID=SCOREBOARD)[0m [1;34m[time = 3015][0m  PRESETN = 1 | PSELX = 1 | PWRITE = 0 | PENABLE = 1 | PSTRB = 0 | PREADY = 1 | PRDATA = 4156894669 | PSLVERR = 0 
# [1;32m[INFO] [0m [1;36m(ID=SCOREBOARD)[0m [1;34m[time = 3015][0m data stored at slave[ 58] = 4156894669 
# [1;32m[INFO] [0m [1;36m(ID=SCOREBOARD)[0m [1;34m[time = 3015][0m ---------------------------------------
# [1;32m[INFO] [0m [1;36m(ID=SCOREBOARD)[0m [1;34m[time = 3015][0m ----           TEST PASS           ----
# [1;32m[INFO] [0m [1;36m(ID=SCOREBOARD)[0m [1;34m[time = 3015][0m ---------------------------------------
# [1;32m[INFO] [0m [1;36m(ID=SCOREBOARD)[0m [1;34m[time = 3065][0m WRITE TRANSFER
# [1;32m[INFO] [0m [1;36m(ID=SCOREBOARD)[0m [1;34m[time = 3065][0m  PRESETN = 1 | PSELX = 1 | PWRITE = 1 | PENABLE = 1 | PSTRB = 2 | PREADY = 1 | PRDATA = 4156894669 | PSLVERR = 0 
# [1;32m[INFO] [0m [1;36m(ID=SCOREBOARD)[0m [1;34m[time = 3065][0m data strored at slave[ 58] = 3911383537 
# [1;32m[INFO] [0m [1;36m(ID=SCOREBOARD)[0m [1;34m[time = 3065][0m  PSTRB WRITE: ADDR = 58 | PSTRB = 2 | OLD_DATA = 4156894669 | NEW_DATA = 4156946893 
# [1;32m[INFO] [0m [1;36m(ID=SCOREBOARD)[0m [1;34m[time = 3115][0m READ TRANSFER
# [1;32m[INFO] [0m [1;36m(ID=SCOREBOARD)[0m [1;34m[time = 3115][0m  PRESETN = 1 | PSELX = 1 | PWRITE = 0 | PENABLE = 1 | PSTRB = 0 | PREADY = 1 | PRDATA = 4156946893 | PSLVERR = 0 
# [1;32m[INFO] [0m [1;36m(ID=SCOREBOARD)[0m [1;34m[time = 3115][0m data stored at slave[ 58] = 4156946893 
# [1;32m[INFO] [0m [1;36m(ID=SCOREBOARD)[0m [1;34m[time = 3115][0m ---------------------------------------
# [1;32m[INFO] [0m [1;36m(ID=SCOREBOARD)[0m [1;34m[time = 3115][0m ----           TEST PASS           ----
# [1;32m[INFO] [0m [1;36m(ID=SCOREBOARD)[0m [1;34m[time = 3115][0m ---------------------------------------
# [1;32m[INFO] [0m [1;36m(ID=SCOREBOARD)[0m [1;34m[time = 3165][0m WRITE TRANSFER
# [1;32m[INFO] [0m [1;36m(ID=SCOREBOARD)[0m [1;34m[time = 3165][0m  PRESETN = 1 | PSELX = 1 | PWRITE = 1 | PENABLE = 1 | PSTRB = 4 | PREADY = 1 | PRDATA = 4156946893 | PSLVERR = 0 
# [1;32m[INFO] [0m [1;36m(ID=SCOREBOARD)[0m [1;34m[time = 3165][0m data strored at slave[ 58] = 2035477763 
# [1;32m[INFO] [0m [1;36m(ID=SCOREBOARD)[0m [1;34m[time = 3165][0m  PSTRB WRITE: ADDR = 58 | PSTRB = 4 | OLD_DATA = 4156946893 | NEW_DATA = 4149410253 
# [1;32m[INFO] [0m [1;36m(ID=SCOREBOARD)[0m [1;34m[time = 3215][0m READ TRANSFER
# [1;32m[INFO] [0m [1;36m(ID=SCOREBOARD)[0m [1;34m[time = 3215][0m  PRESETN = 1 | PSELX = 1 | PWRITE = 0 | PENABLE = 1 | PSTRB = 0 | PREADY = 1 | PRDATA = 4149410253 | PSLVERR = 0 
# [1;32m[INFO] [0m [1;36m(ID=SCOREBOARD)[0m [1;34m[time = 3215][0m data stored at slave[ 58] = 4149410253 
# [1;32m[INFO] [0m [1;36m(ID=SCOREBOARD)[0m [1;34m[time = 3215][0m ---------------------------------------
# [1;32m[INFO] [0m [1;36m(ID=SCOREBOARD)[0m [1;34m[time = 3215][0m ----           TEST PASS           ----
# [1;32m[INFO] [0m [1;36m(ID=SCOREBOARD)[0m [1;34m[time = 3215][0m ---------------------------------------
# [1;32m[INFO] [0m [1;36m(ID=SCOREBOARD)[0m [1;34m[time = 3265][0m WRITE TRANSFER
# [1;32m[INFO] [0m [1;36m(ID=SCOREBOARD)[0m [1;34m[time = 3265][0m  PRESETN = 1 | PSELX = 1 | PWRITE = 1 | PENABLE = 1 | PSTRB = 8 | PREADY = 1 | PRDATA = 4149410253 | PSLVERR = 0 
# [1;32m[INFO] [0m [1;36m(ID=SCOREBOARD)[0m [1;34m[time = 3265][0m data strored at slave[ 58] = 1306495429 
# [1;32m[INFO] [0m [1;36m(ID=SCOREBOARD)[0m [1;34m[time = 3265][0m  PSTRB WRITE: ADDR = 58 | PSTRB = 8 | OLD_DATA = 4149410253 | NEW_DATA = 1297283533 
# [1;32m[INFO] [0m [1;36m(ID=SCOREBOARD)[0m [1;34m[time = 3315][0m READ TRANSFER
# [1;32m[INFO] [0m [1;36m(ID=SCOREBOARD)[0m [1;34m[time = 3315][0m  PRESETN = 1 | PSELX = 1 | PWRITE = 0 | PENABLE = 1 | PSTRB = 0 | PREADY = 1 | PRDATA = 1297283533 | PSLVERR = 0 
# [1;32m[INFO] [0m [1;36m(ID=SCOREBOARD)[0m [1;34m[time = 3315][0m data stored at slave[ 58] = 1297283533 
# [1;32m[INFO] [0m [1;36m(ID=SCOREBOARD)[0m [1;34m[time = 3315][0m ---------------------------------------
# [1;32m[INFO] [0m [1;36m(ID=SCOREBOARD)[0m [1;34m[time = 3315][0m ----           TEST PASS           ----
# [1;32m[INFO] [0m [1;36m(ID=SCOREBOARD)[0m [1;34m[time = 3315][0m ---------------------------------------
# [1;32m[INFO] [0m [1;36m(ID=SCOREBOARD)[0m [1;34m[time = 3365][0m WRITE TRANSFER
# [1;32m[INFO] [0m [1;36m(ID=SCOREBOARD)[0m [1;34m[time = 3365][0m  PRESETN = 1 | PSELX = 1 | PWRITE = 1 | PENABLE = 1 | PSTRB = 0 | PREADY = 1 | PRDATA = 1297283533 | PSLVERR = 0 
# [1;32m[INFO] [0m [1;36m(ID=SCOREBOARD)[0m [1;34m[time = 3365][0m data strored at slave[137] =  983684707 
# [1;32m[INFO] [0m [1;36m(ID=SCOREBOARD)[0m [1;34m[time = 3415][0m WRITE TRANSFER
# [1;32m[INFO] [0m [1;36m(ID=SCOREBOARD)[0m [1;34m[time = 3415][0m  PRESETN = 1 | PSELX = 1 | PWRITE = 1 | PENABLE = 1 | PSTRB = 1 | PREADY = 1 | PRDATA = 1297283533 | PSLVERR = 0 
# [1;32m[INFO] [0m [1;36m(ID=SCOREBOARD)[0m [1;34m[time = 3415][0m data strored at slave[137] = 3949940055 
# [1;32m[INFO] [0m [1;36m(ID=SCOREBOARD)[0m [1;34m[time = 3415][0m  PSTRB WRITE: ADDR = 137 | PSTRB = 1 | OLD_DATA = 983684707 | NEW_DATA = 983684695 
# [1;32m[INFO] [0m [1;36m(ID=SCOREBOARD)[0m [1;34m[time = 3465][0m READ TRANSFER
# [1;32m[INFO] [0m [1;36m(ID=SCOREBOARD)[0m [1;34m[time = 3465][0m  PRESETN = 1 | PSELX = 1 | PWRITE = 0 | PENABLE = 1 | PSTRB = 0 | PREADY = 1 | PRDATA = 983684695 | PSLVERR = 0 
# [1;32m[INFO] [0m [1;36m(ID=SCOREBOARD)[0m [1;34m[time = 3465][0m data stored at slave[137] =  983684695 
# [1;32m[INFO] [0m [1;36m(ID=SCOREBOARD)[0m [1;34m[time = 3465][0m ---------------------------------------
# [1;32m[INFO] [0m [1;36m(ID=SCOREBOARD)[0m [1;34m[time = 3465][0m ----           TEST PASS           ----
# [1;32m[INFO] [0m [1;36m(ID=SCOREBOARD)[0m [1;34m[time = 3465][0m ---------------------------------------
# [1;32m[INFO] [0m [1;36m(ID=SCOREBOARD)[0m [1;34m[time = 3515][0m WRITE TRANSFER
# [1;32m[INFO] [0m [1;36m(ID=SCOREBOARD)[0m [1;34m[time = 3515][0m  PRESETN = 1 | PSELX = 1 | PWRITE = 1 | PENABLE = 1 | PSTRB = 2 | PREADY = 1 | PRDATA = 983684695 | PSLVERR = 0 
# [1;32m[INFO] [0m [1;36m(ID=SCOREBOARD)[0m [1;34m[time = 3515][0m data strored at slave[137] = 3442611533 
# [1;32m[INFO] [0m [1;36m(ID=SCOREBOARD)[0m [1;34m[time = 3515][0m  PSTRB WRITE: ADDR = 137 | PSTRB = 2 | OLD_DATA = 983684695 | NEW_DATA = 983635287 
# [1;32m[INFO] [0m [1;36m(ID=SCOREBOARD)[0m [1;34m[time = 3565][0m READ TRANSFER
# [1;32m[INFO] [0m [1;36m(ID=SCOREBOARD)[0m [1;34m[time = 3565][0m  PRESETN = 1 | PSELX = 1 | PWRITE = 0 | PENABLE = 1 | PSTRB = 0 | PREADY = 1 | PRDATA = 983635287 | PSLVERR = 0 
# [1;32m[INFO] [0m [1;36m(ID=SCOREBOARD)[0m [1;34m[time = 3565][0m data stored at slave[137] =  983635287 
# [1;32m[INFO] [0m [1;36m(ID=SCOREBOARD)[0m [1;34m[time = 3565][0m ---------------------------------------
# [1;32m[INFO] [0m [1;36m(ID=SCOREBOARD)[0m [1;34m[time = 3565][0m ----           TEST PASS           ----
# [1;32m[INFO] [0m [1;36m(ID=SCOREBOARD)[0m [1;34m[time = 3565][0m ---------------------------------------
# [1;32m[INFO] [0m [1;36m(ID=SCOREBOARD)[0m [1;34m[time = 3615][0m WRITE TRANSFER
# [1;32m[INFO] [0m [1;36m(ID=SCOREBOARD)[0m [1;34m[time = 3615][0m  PRESETN = 1 | PSELX = 1 | PWRITE = 1 | PENABLE = 1 | PSTRB = 4 | PREADY = 1 | PRDATA = 983635287 | PSLVERR = 0 
# [1;32m[INFO] [0m [1;36m(ID=SCOREBOARD)[0m [1;34m[time = 3615][0m data strored at slave[137] = 3034499817 
# [1;32m[INFO] [0m [1;36m(ID=SCOREBOARD)[0m [1;34m[time = 3615][0m  PSTRB WRITE: ADDR = 137 | PSTRB = 4 | OLD_DATA = 983635287 | NEW_DATA = 987632983 
# [1;32m[INFO] [0m [1;36m(ID=SCOREBOARD)[0m [1;34m[time = 3665][0m READ TRANSFER
# [1;32m[INFO] [0m [1;36m(ID=SCOREBOARD)[0m [1;34m[time = 3665][0m  PRESETN = 1 | PSELX = 1 | PWRITE = 0 | PENABLE = 1 | PSTRB = 0 | PREADY = 1 | PRDATA = 987632983 | PSLVERR = 0 
# [1;32m[INFO] [0m [1;36m(ID=SCOREBOARD)[0m [1;34m[time = 3665][0m data stored at slave[137] =  987632983 
# [1;32m[INFO] [0m [1;36m(ID=SCOREBOARD)[0m [1;34m[time = 3665][0m ---------------------------------------
# [1;32m[INFO] [0m [1;36m(ID=SCOREBOARD)[0m [1;34m[time = 3665][0m ----           TEST PASS           ----
# [1;32m[INFO] [0m [1;36m(ID=SCOREBOARD)[0m [1;34m[time = 3665][0m ---------------------------------------
# [1;32m[INFO] [0m [1;36m(ID=SCOREBOARD)[0m [1;34m[time = 3715][0m WRITE TRANSFER
# [1;32m[INFO] [0m [1;36m(ID=SCOREBOARD)[0m [1;34m[time = 3715][0m  PRESETN = 1 | PSELX = 1 | PWRITE = 1 | PENABLE = 1 | PSTRB = 8 | PREADY = 1 | PRDATA = 987632983 | PSLVERR = 0 
# [1;32m[INFO] [0m [1;36m(ID=SCOREBOARD)[0m [1;34m[time = 3715][0m data strored at slave[137] = 1834186223 
# [1;32m[INFO] [0m [1;36m(ID=SCOREBOARD)[0m [1;34m[time = 3715][0m  PSTRB WRITE: ADDR = 137 | PSTRB = 8 | OLD_DATA = 987632983 | NEW_DATA = 1843270999 
# [1;32m[INFO] [0m [1;36m(ID=SCOREBOARD)[0m [1;34m[time = 3765][0m READ TRANSFER
# [1;32m[INFO] [0m [1;36m(ID=SCOREBOARD)[0m [1;34m[time = 3765][0m  PRESETN = 1 | PSELX = 1 | PWRITE = 0 | PENABLE = 1 | PSTRB = 0 | PREADY = 1 | PRDATA = 1843270999 | PSLVERR = 0 
# [1;32m[INFO] [0m [1;36m(ID=SCOREBOARD)[0m [1;34m[time = 3765][0m data stored at slave[137] = 1843270999 
# [1;32m[INFO] [0m [1;36m(ID=SCOREBOARD)[0m [1;34m[time = 3765][0m ---------------------------------------
# [1;32m[INFO] [0m [1;36m(ID=SCOREBOARD)[0m [1;34m[time = 3765][0m ----           TEST PASS           ----
# [1;32m[INFO] [0m [1;36m(ID=SCOREBOARD)[0m [1;34m[time = 3765][0m ---------------------------------------
# [1;32m[INFO] [0m [1;36m(ID=SCOREBOARD)[0m [1;34m[time = 3815][0m WRITE TRANSFER
# [1;32m[INFO] [0m [1;36m(ID=SCOREBOARD)[0m [1;34m[time = 3815][0m  PRESETN = 1 | PSELX = 1 | PWRITE = 1 | PENABLE = 1 | PSTRB = 0 | PREADY = 1 | PRDATA = 1843270999 | PSLVERR = 0 
# [1;32m[INFO] [0m [1;36m(ID=SCOREBOARD)[0m [1;34m[time = 3815][0m data strored at slave[133] = 2181954840 
# [1;32m[INFO] [0m [1;36m(ID=SCOREBOARD)[0m [1;34m[time = 3865][0m WRITE TRANSFER
# [1;32m[INFO] [0m [1;36m(ID=SCOREBOARD)[0m [1;34m[time = 3865][0m  PRESETN = 1 | PSELX = 1 | PWRITE = 1 | PENABLE = 1 | PSTRB = 1 | PREADY = 1 | PRDATA = 1843270999 | PSLVERR = 0 
# [1;32m[INFO] [0m [1;36m(ID=SCOREBOARD)[0m [1;34m[time = 3865][0m data strored at slave[133] = 3977593504 
# [1;32m[INFO] [0m [1;36m(ID=SCOREBOARD)[0m [1;34m[time = 3865][0m  PSTRB WRITE: ADDR = 133 | PSTRB = 1 | OLD_DATA = 2181954840 | NEW_DATA = 2181954976 
# [1;32m[INFO] [0m [1;36m(ID=SCOREBOARD)[0m [1;34m[time = 3915][0m READ TRANSFER
# [1;32m[INFO] [0m [1;36m(ID=SCOREBOARD)[0m [1;34m[time = 3915][0m  PRESETN = 1 | PSELX = 1 | PWRITE = 0 | PENABLE = 1 | PSTRB = 0 | PREADY = 1 | PRDATA = 2181954976 | PSLVERR = 0 
# [1;32m[INFO] [0m [1;36m(ID=SCOREBOARD)[0m [1;34m[time = 3915][0m data stored at slave[133] = 2181954976 
# [1;32m[INFO] [0m [1;36m(ID=SCOREBOARD)[0m [1;34m[time = 3915][0m ---------------------------------------
# [1;32m[INFO] [0m [1;36m(ID=SCOREBOARD)[0m [1;34m[time = 3915][0m ----           TEST PASS           ----
# [1;32m[INFO] [0m [1;36m(ID=SCOREBOARD)[0m [1;34m[time = 3915][0m ---------------------------------------
# [1;32m[INFO] [0m [1;36m(ID=SCOREBOARD)[0m [1;34m[time = 3965][0m WRITE TRANSFER
# [1;32m[INFO] [0m [1;36m(ID=SCOREBOARD)[0m [1;34m[time = 3965][0m  PRESETN = 1 | PSELX = 1 | PWRITE = 1 | PENABLE = 1 | PSTRB = 2 | PREADY = 1 | PRDATA = 2181954976 | PSLVERR = 0 
# [1;32m[INFO] [0m [1;36m(ID=SCOREBOARD)[0m [1;34m[time = 3965][0m data strored at slave[133] =  781526496 
# [1;32m[INFO] [0m [1;36m(ID=SCOREBOARD)[0m [1;34m[time = 3965][0m  PSTRB WRITE: ADDR = 133 | PSTRB = 2 | OLD_DATA = 2181954976 | NEW_DATA = 2181899680 
# [1;32m[INFO] [0m [1;36m(ID=SCOREBOARD)[0m [1;34m[time = 4015][0m READ TRANSFER
# [1;32m[INFO] [0m [1;36m(ID=SCOREBOARD)[0m [1;34m[time = 4015][0m  PRESETN = 1 | PSELX = 1 | PWRITE = 0 | PENABLE = 1 | PSTRB = 0 | PREADY = 1 | PRDATA = 2181899680 | PSLVERR = 0 
# [1;32m[INFO] [0m [1;36m(ID=SCOREBOARD)[0m [1;34m[time = 4015][0m data stored at slave[133] = 2181899680 
# [1;32m[INFO] [0m [1;36m(ID=SCOREBOARD)[0m [1;34m[time = 4015][0m ---------------------------------------
# [1;32m[INFO] [0m [1;36m(ID=SCOREBOARD)[0m [1;34m[time = 4015][0m ----           TEST PASS           ----
# [1;32m[INFO] [0m [1;36m(ID=SCOREBOARD)[0m [1;34m[time = 4015][0m ---------------------------------------
# [1;32m[INFO] [0m [1;36m(ID=SCOREBOARD)[0m [1;34m[time = 4065][0m WRITE TRANSFER
# [1;32m[INFO] [0m [1;36m(ID=SCOREBOARD)[0m [1;34m[time = 4065][0m  PRESETN = 1 | PSELX = 1 | PWRITE = 1 | PENABLE = 1 | PSTRB = 4 | PREADY = 1 | PRDATA = 2181899680 | PSLVERR = 0 
# [1;32m[INFO] [0m [1;36m(ID=SCOREBOARD)[0m [1;34m[time = 4065][0m data strored at slave[133] = 2629495842 
# [1;32m[INFO] [0m [1;36m(ID=SCOREBOARD)[0m [1;34m[time = 4065][0m  PSTRB WRITE: ADDR = 133 | PSTRB = 4 | OLD_DATA = 2181899680 | NEW_DATA = 2193237408 
# [1;32m[INFO] [0m [1;36m(ID=SCOREBOARD)[0m [1;34m[time = 4115][0m READ TRANSFER
# [1;32m[INFO] [0m [1;36m(ID=SCOREBOARD)[0m [1;34m[time = 4115][0m  PRESETN = 1 | PSELX = 1 | PWRITE = 0 | PENABLE = 1 | PSTRB = 0 | PREADY = 1 | PRDATA = 2193237408 | PSLVERR = 0 
# [1;32m[INFO] [0m [1;36m(ID=SCOREBOARD)[0m [1;34m[time = 4115][0m data stored at slave[133] = 2193237408 
# [1;32m[INFO] [0m [1;36m(ID=SCOREBOARD)[0m [1;34m[time = 4115][0m ---------------------------------------
# [1;32m[INFO] [0m [1;36m(ID=SCOREBOARD)[0m [1;34m[time = 4115][0m ----           TEST PASS           ----
# [1;32m[INFO] [0m [1;36m(ID=SCOREBOARD)[0m [1;34m[time = 4115][0m ---------------------------------------
# [1;32m[INFO] [0m [1;36m(ID=SCOREBOARD)[0m [1;34m[time = 4165][0m WRITE TRANSFER
# [1;32m[INFO] [0m [1;36m(ID=SCOREBOARD)[0m [1;34m[time = 4165][0m  PRESETN = 1 | PSELX = 1 | PWRITE = 1 | PENABLE = 1 | PSTRB = 8 | PREADY = 1 | PRDATA = 2193237408 | PSLVERR = 0 
# [1;32m[INFO] [0m [1;36m(ID=SCOREBOARD)[0m [1;34m[time = 4165][0m data strored at slave[133] = 3315420977 
# [1;32m[INFO] [0m [1;36m(ID=SCOREBOARD)[0m [1;34m[time = 4165][0m  PSTRB WRITE: ADDR = 133 | PSTRB = 8 | OLD_DATA = 2193237408 | NEW_DATA = 3317310880 
# [1;32m[INFO] [0m [1;36m(ID=SCOREBOARD)[0m [1;34m[time = 4215][0m READ TRANSFER
# [1;32m[INFO] [0m [1;36m(ID=SCOREBOARD)[0m [1;34m[time = 4215][0m  PRESETN = 1 | PSELX = 1 | PWRITE = 0 | PENABLE = 1 | PSTRB = 0 | PREADY = 1 | PRDATA = 3317310880 | PSLVERR = 0 
# [1;32m[INFO] [0m [1;36m(ID=SCOREBOARD)[0m [1;34m[time = 4215][0m data stored at slave[133] = 3317310880 
# [1;32m[INFO] [0m [1;36m(ID=SCOREBOARD)[0m [1;34m[time = 4215][0m ---------------------------------------
# [1;32m[INFO] [0m [1;36m(ID=SCOREBOARD)[0m [1;34m[time = 4215][0m ----           TEST PASS           ----
# [1;32m[INFO] [0m [1;36m(ID=SCOREBOARD)[0m [1;34m[time = 4215][0m ---------------------------------------
# [1;32m[INFO] [0m [1;36m(ID=SCOREBOARD)[0m [1;34m[time = 4265][0m WRITE TRANSFER
# [1;32m[INFO] [0m [1;36m(ID=SCOREBOARD)[0m [1;34m[time = 4265][0m  PRESETN = 1 | PSELX = 1 | PWRITE = 1 | PENABLE = 1 | PSTRB = 0 | PREADY = 1 | PRDATA = 3317310880 | PSLVERR = 0 
# [1;32m[INFO] [0m [1;36m(ID=SCOREBOARD)[0m [1;34m[time = 4265][0m data strored at slave[135] = 1750298341 
# [1;32m[INFO] [0m [1;36m(ID=SCOREBOARD)[0m [1;34m[time = 4315][0m WRITE TRANSFER
# [1;32m[INFO] [0m [1;36m(ID=SCOREBOARD)[0m [1;34m[time = 4315][0m  PRESETN = 1 | PSELX = 1 | PWRITE = 1 | PENABLE = 1 | PSTRB = 1 | PREADY = 1 | PRDATA = 3317310880 | PSLVERR = 0 
# [1;32m[INFO] [0m [1;36m(ID=SCOREBOARD)[0m [1;34m[time = 4315][0m data strored at slave[135] = 3014690107 
# [1;32m[INFO] [0m [1;36m(ID=SCOREBOARD)[0m [1;34m[time = 4315][0m  PSTRB WRITE: ADDR = 135 | PSTRB = 1 | OLD_DATA = 1750298341 | NEW_DATA = 1750298171 
# [1;32m[INFO] [0m [1;36m(ID=SCOREBOARD)[0m [1;34m[time = 4365][0m READ TRANSFER
# [1;32m[INFO] [0m [1;36m(ID=SCOREBOARD)[0m [1;34m[time = 4365][0m  PRESETN = 1 | PSELX = 1 | PWRITE = 0 | PENABLE = 1 | PSTRB = 0 | PREADY = 1 | PRDATA = 1750298171 | PSLVERR = 0 
# [1;32m[INFO] [0m [1;36m(ID=SCOREBOARD)[0m [1;34m[time = 4365][0m data stored at slave[135] = 1750298171 
# [1;32m[INFO] [0m [1;36m(ID=SCOREBOARD)[0m [1;34m[time = 4365][0m ---------------------------------------
# [1;32m[INFO] [0m [1;36m(ID=SCOREBOARD)[0m [1;34m[time = 4365][0m ----           TEST PASS           ----
# [1;32m[INFO] [0m [1;36m(ID=SCOREBOARD)[0m [1;34m[time = 4365][0m ---------------------------------------
# [1;32m[INFO] [0m [1;36m(ID=SCOREBOARD)[0m [1;34m[time = 4415][0m WRITE TRANSFER
# [1;32m[INFO] [0m [1;36m(ID=SCOREBOARD)[0m [1;34m[time = 4415][0m  PRESETN = 1 | PSELX = 1 | PWRITE = 1 | PENABLE = 1 | PSTRB = 2 | PREADY = 1 | PRDATA = 1750298171 | PSLVERR = 0 
# [1;32m[INFO] [0m [1;36m(ID=SCOREBOARD)[0m [1;34m[time = 4415][0m data strored at slave[135] = 1938282892 
# [1;32m[INFO] [0m [1;36m(ID=SCOREBOARD)[0m [1;34m[time = 4415][0m  PSTRB WRITE: ADDR = 135 | PSTRB = 2 | OLD_DATA = 1750298171 | NEW_DATA = 1750325563 
# [1;32m[INFO] [0m [1;36m(ID=SCOREBOARD)[0m [1;34m[time = 4465][0m READ TRANSFER
# [1;32m[INFO] [0m [1;36m(ID=SCOREBOARD)[0m [1;34m[time = 4465][0m  PRESETN = 1 | PSELX = 1 | PWRITE = 0 | PENABLE = 1 | PSTRB = 0 | PREADY = 1 | PRDATA = 1750325563 | PSLVERR = 0 
# [1;32m[INFO] [0m [1;36m(ID=SCOREBOARD)[0m [1;34m[time = 4465][0m data stored at slave[135] = 1750325563 
# [1;32m[INFO] [0m [1;36m(ID=SCOREBOARD)[0m [1;34m[time = 4465][0m ---------------------------------------
# [1;32m[INFO] [0m [1;36m(ID=SCOREBOARD)[0m [1;34m[time = 4465][0m ----           TEST PASS           ----
# [1;32m[INFO] [0m [1;36m(ID=SCOREBOARD)[0m [1;34m[time = 4465][0m ---------------------------------------
# [1;32m[INFO] [0m [1;36m(ID=SCOREBOARD)[0m [1;34m[time = 4515][0m WRITE TRANSFER
# [1;32m[INFO] [0m [1;36m(ID=SCOREBOARD)[0m [1;34m[time = 4515][0m  PRESETN = 1 | PSELX = 1 | PWRITE = 1 | PENABLE = 1 | PSTRB = 4 | PREADY = 1 | PRDATA = 1750325563 | PSLVERR = 0 
# [1;32m[INFO] [0m [1;36m(ID=SCOREBOARD)[0m [1;34m[time = 4515][0m data strored at slave[135] = 1877137329 
# [1;32m[INFO] [0m [1;36m(ID=SCOREBOARD)[0m [1;34m[time = 4515][0m  PSTRB WRITE: ADDR = 135 | PSTRB = 4 | OLD_DATA = 1750325563 | NEW_DATA = 1759697211 
# [1;32m[INFO] [0m [1;36m(ID=SCOREBOARD)[0m [1;34m[time = 4565][0m READ TRANSFER
# [1;32m[INFO] [0m [1;36m(ID=SCOREBOARD)[0m [1;34m[time = 4565][0m  PRESETN = 1 | PSELX = 1 | PWRITE = 0 | PENABLE = 1 | PSTRB = 0 | PREADY = 1 | PRDATA = 1759697211 | PSLVERR = 0 
# [1;32m[INFO] [0m [1;36m(ID=SCOREBOARD)[0m [1;34m[time = 4565][0m data stored at slave[135] = 1759697211 
# [1;32m[INFO] [0m [1;36m(ID=SCOREBOARD)[0m [1;34m[time = 4565][0m ---------------------------------------
# [1;32m[INFO] [0m [1;36m(ID=SCOREBOARD)[0m [1;34m[time = 4565][0m ----           TEST PASS           ----
# [1;32m[INFO] [0m [1;36m(ID=SCOREBOARD)[0m [1;34m[time = 4565][0m ---------------------------------------
# [1;32m[INFO] [0m [1;36m(ID=SCOREBOARD)[0m [1;34m[time = 4615][0m WRITE TRANSFER
# [1;32m[INFO] [0m [1;36m(ID=SCOREBOARD)[0m [1;34m[time = 4615][0m  PRESETN = 1 | PSELX = 1 | PWRITE = 1 | PENABLE = 1 | PSTRB = 8 | PREADY = 1 | PRDATA = 1759697211 | PSLVERR = 0 
# [1;32m[INFO] [0m [1;36m(ID=SCOREBOARD)[0m [1;34m[time = 4615][0m data strored at slave[135] = 1165332129 
# [1;32m[INFO] [0m [1;36m(ID=SCOREBOARD)[0m [1;34m[time = 4615][0m  PSTRB WRITE: ADDR = 135 | PSTRB = 8 | OLD_DATA = 1759697211 | NEW_DATA = 1172494651 
# [1;32m[INFO] [0m [1;36m(ID=SCOREBOARD)[0m [1;34m[time = 4665][0m READ TRANSFER
# [1;32m[INFO] [0m [1;36m(ID=SCOREBOARD)[0m [1;34m[time = 4665][0m  PRESETN = 1 | PSELX = 1 | PWRITE = 0 | PENABLE = 1 | PSTRB = 0 | PREADY = 1 | PRDATA = 1172494651 | PSLVERR = 0 
# [1;32m[INFO] [0m [1;36m(ID=SCOREBOARD)[0m [1;34m[time = 4665][0m data stored at slave[135] = 1172494651 
# [1;32m[INFO] [0m [1;36m(ID=SCOREBOARD)[0m [1;34m[time = 4665][0m ---------------------------------------
# [1;32m[INFO] [0m [1;36m(ID=SCOREBOARD)[0m [1;34m[time = 4665][0m ----           TEST PASS           ----
# [1;32m[INFO] [0m [1;36m(ID=SCOREBOARD)[0m [1;34m[time = 4665][0m ---------------------------------------
# [1;32m[INFO] [0m [1;36m(ID=SCOREBOARD)[0m [1;34m[time = 4715][0m WRITE TRANSFER
# [1;32m[INFO] [0m [1;36m(ID=SCOREBOARD)[0m [1;34m[time = 4715][0m  PRESETN = 1 | PSELX = 1 | PWRITE = 1 | PENABLE = 1 | PSTRB = 0 | PREADY = 1 | PRDATA = 1172494651 | PSLVERR = 0 
# [1;32m[INFO] [0m [1;36m(ID=SCOREBOARD)[0m [1;34m[time = 4715][0m data strored at slave[163] = 2326183469 
# [1;32m[INFO] [0m [1;36m(ID=SCOREBOARD)[0m [1;34m[time = 4765][0m WRITE TRANSFER
# [1;32m[INFO] [0m [1;36m(ID=SCOREBOARD)[0m [1;34m[time = 4765][0m  PRESETN = 1 | PSELX = 1 | PWRITE = 1 | PENABLE = 1 | PSTRB = 1 | PREADY = 1 | PRDATA = 1172494651 | PSLVERR = 0 
# [1;32m[INFO] [0m [1;36m(ID=SCOREBOARD)[0m [1;34m[time = 4765][0m data strored at slave[163] = 1097078138 
# [1;32m[INFO] [0m [1;36m(ID=SCOREBOARD)[0m [1;34m[time = 4765][0m  PSTRB WRITE: ADDR = 163 | PSTRB = 1 | OLD_DATA = 2326183469 | NEW_DATA = 2326183546 
# [1;32m[INFO] [0m [1;36m(ID=SCOREBOARD)[0m [1;34m[time = 4815][0m READ TRANSFER
# [1;32m[INFO] [0m [1;36m(ID=SCOREBOARD)[0m [1;34m[time = 4815][0m  PRESETN = 1 | PSELX = 1 | PWRITE = 0 | PENABLE = 1 | PSTRB = 0 | PREADY = 1 | PRDATA = 2326183546 | PSLVERR = 0 
# [1;32m[INFO] [0m [1;36m(ID=SCOREBOARD)[0m [1;34m[time = 4815][0m data stored at slave[163] = 2326183546 
# [1;32m[INFO] [0m [1;36m(ID=SCOREBOARD)[0m [1;34m[time = 4815][0m ---------------------------------------
# [1;32m[INFO] [0m [1;36m(ID=SCOREBOARD)[0m [1;34m[time = 4815][0m ----           TEST PASS           ----
# [1;32m[INFO] [0m [1;36m(ID=SCOREBOARD)[0m [1;34m[time = 4815][0m ---------------------------------------
# [1;32m[INFO] [0m [1;36m(ID=SCOREBOARD)[0m [1;34m[time = 4865][0m WRITE TRANSFER
# [1;32m[INFO] [0m [1;36m(ID=SCOREBOARD)[0m [1;34m[time = 4865][0m  PRESETN = 1 | PSELX = 1 | PWRITE = 1 | PENABLE = 1 | PSTRB = 2 | PREADY = 1 | PRDATA = 2326183546 | PSLVERR = 0 
# [1;32m[INFO] [0m [1;36m(ID=SCOREBOARD)[0m [1;34m[time = 4865][0m data strored at slave[163] = 3407196143 
# [1;32m[INFO] [0m [1;36m(ID=SCOREBOARD)[0m [1;34m[time = 4865][0m  PSTRB WRITE: ADDR = 163 | PSTRB = 2 | OLD_DATA = 2326183546 | NEW_DATA = 2326179706 
# [1;32m[INFO] [0m [1;36m(ID=SCOREBOARD)[0m [1;34m[time = 4915][0m READ TRANSFER
# [1;32m[INFO] [0m [1;36m(ID=SCOREBOARD)[0m [1;34m[time = 4915][0m  PRESETN = 1 | PSELX = 1 | PWRITE = 0 | PENABLE = 1 | PSTRB = 0 | PREADY = 1 | PRDATA = 2326179706 | PSLVERR = 0 
# [1;32m[INFO] [0m [1;36m(ID=SCOREBOARD)[0m [1;34m[time = 4915][0m data stored at slave[163] = 2326179706 
# [1;32m[INFO] [0m [1;36m(ID=SCOREBOARD)[0m [1;34m[time = 4915][0m ---------------------------------------
# [1;32m[INFO] [0m [1;36m(ID=SCOREBOARD)[0m [1;34m[time = 4915][0m ----           TEST PASS           ----
# [1;32m[INFO] [0m [1;36m(ID=SCOREBOARD)[0m [1;34m[time = 4915][0m ---------------------------------------
# [1;32m[INFO] [0m [1;36m(ID=SCOREBOARD)[0m [1;34m[time = 4965][0m WRITE TRANSFER
# [1;32m[INFO] [0m [1;36m(ID=SCOREBOARD)[0m [1;34m[time = 4965][0m  PRESETN = 1 | PSELX = 1 | PWRITE = 1 | PENABLE = 1 | PSTRB = 4 | PREADY = 1 | PRDATA = 2326179706 | PSLVERR = 0 
# [1;32m[INFO] [0m [1;36m(ID=SCOREBOARD)[0m [1;34m[time = 4965][0m data strored at slave[163] = 1249795373 
# [1;32m[INFO] [0m [1;36m(ID=SCOREBOARD)[0m [1;34m[time = 4965][0m  PSTRB WRITE: ADDR = 163 | PSTRB = 4 | OLD_DATA = 2326179706 | NEW_DATA = 2323558266 
# [1;32m[INFO] [0m [1;36m(ID=SCOREBOARD)[0m [1;34m[time = 5015][0m READ TRANSFER
# [1;32m[INFO] [0m [1;36m(ID=SCOREBOARD)[0m [1;34m[time = 5015][0m  PRESETN = 1 | PSELX = 1 | PWRITE = 0 | PENABLE = 1 | PSTRB = 0 | PREADY = 1 | PRDATA = 2323558266 | PSLVERR = 0 
# [1;32m[INFO] [0m [1;36m(ID=SCOREBOARD)[0m [1;34m[time = 5015][0m data stored at slave[163] = 2323558266 
# [1;32m[INFO] [0m [1;36m(ID=SCOREBOARD)[0m [1;34m[time = 5015][0m ---------------------------------------
# [1;32m[INFO] [0m [1;36m(ID=SCOREBOARD)[0m [1;34m[time = 5015][0m ----           TEST PASS           ----
# [1;32m[INFO] [0m [1;36m(ID=SCOREBOARD)[0m [1;34m[time = 5015][0m ---------------------------------------
# [1;32m[INFO] [0m [1;36m(ID=SCOREBOARD)[0m [1;34m[time = 5065][0m WRITE TRANSFER
# [1;32m[INFO] [0m [1;36m(ID=SCOREBOARD)[0m [1;34m[time = 5065][0m  PRESETN = 1 | PSELX = 1 | PWRITE = 1 | PENABLE = 1 | PSTRB = 8 | PREADY = 1 | PRDATA = 2323558266 | PSLVERR = 0 
# [1;32m[INFO] [0m [1;36m(ID=SCOREBOARD)[0m [1;34m[time = 5065][0m data strored at slave[163] = 4015975212 
# [1;32m[INFO] [0m [1;36m(ID=SCOREBOARD)[0m [1;34m[time = 5065][0m  PSTRB WRITE: ADDR = 163 | PSTRB = 8 | OLD_DATA = 2323558266 | NEW_DATA = 4018057082 
# [1;32m[INFO] [0m [1;36m(ID=SCOREBOARD)[0m [1;34m[time = 5115][0m READ TRANSFER
# [1;32m[INFO] [0m [1;36m(ID=SCOREBOARD)[0m [1;34m[time = 5115][0m  PRESETN = 1 | PSELX = 1 | PWRITE = 0 | PENABLE = 1 | PSTRB = 0 | PREADY = 1 | PRDATA = 4018057082 | PSLVERR = 0 
# [1;32m[INFO] [0m [1;36m(ID=SCOREBOARD)[0m [1;34m[time = 5115][0m data stored at slave[163] = 4018057082 
# [1;32m[INFO] [0m [1;36m(ID=SCOREBOARD)[0m [1;34m[time = 5115][0m ---------------------------------------
# [1;32m[INFO] [0m [1;36m(ID=SCOREBOARD)[0m [1;34m[time = 5115][0m ----           TEST PASS           ----
# [1;32m[INFO] [0m [1;36m(ID=SCOREBOARD)[0m [1;34m[time = 5115][0m ---------------------------------------
# [1;32m[INFO] [0m [1;36m(ID=SCOREBOARD)[0m [1;34m[time = 5165][0m WRITE TRANSFER
# [1;32m[INFO] [0m [1;36m(ID=SCOREBOARD)[0m [1;34m[time = 5165][0m  PRESETN = 1 | PSELX = 1 | PWRITE = 1 | PENABLE = 1 | PSTRB = 0 | PREADY = 1 | PRDATA = 4018057082 | PSLVERR = 0 
# [1;32m[INFO] [0m [1;36m(ID=SCOREBOARD)[0m [1;34m[time = 5165][0m data strored at slave[103] = 3599582513 
# [1;32m[INFO] [0m [1;36m(ID=SCOREBOARD)[0m [1;34m[time = 5215][0m WRITE TRANSFER
# [1;32m[INFO] [0m [1;36m(ID=SCOREBOARD)[0m [1;34m[time = 5215][0m  PRESETN = 1 | PSELX = 1 | PWRITE = 1 | PENABLE = 1 | PSTRB = 1 | PREADY = 1 | PRDATA = 4018057082 | PSLVERR = 0 
# [1;32m[INFO] [0m [1;36m(ID=SCOREBOARD)[0m [1;34m[time = 5215][0m data strored at slave[103] = 3297567168 
# [1;32m[INFO] [0m [1;36m(ID=SCOREBOARD)[0m [1;34m[time = 5215][0m  PSTRB WRITE: ADDR = 103 | PSTRB = 1 | OLD_DATA = 3599582513 | NEW_DATA = 3599582656 
# [1;32m[INFO] [0m [1;36m(ID=SCOREBOARD)[0m [1;34m[time = 5265][0m READ TRANSFER
# [1;32m[INFO] [0m [1;36m(ID=SCOREBOARD)[0m [1;34m[time = 5265][0m  PRESETN = 1 | PSELX = 1 | PWRITE = 0 | PENABLE = 1 | PSTRB = 0 | PREADY = 1 | PRDATA = 3599582656 | PSLVERR = 0 
# [1;32m[INFO] [0m [1;36m(ID=SCOREBOARD)[0m [1;34m[time = 5265][0m data stored at slave[103] = 3599582656 
# [1;32m[INFO] [0m [1;36m(ID=SCOREBOARD)[0m [1;34m[time = 5265][0m ---------------------------------------
# [1;32m[INFO] [0m [1;36m(ID=SCOREBOARD)[0m [1;34m[time = 5265][0m ----           TEST PASS           ----
# [1;32m[INFO] [0m [1;36m(ID=SCOREBOARD)[0m [1;34m[time = 5265][0m ---------------------------------------
# [1;32m[INFO] [0m [1;36m(ID=SCOREBOARD)[0m [1;34m[time = 5315][0m WRITE TRANSFER
# [1;32m[INFO] [0m [1;36m(ID=SCOREBOARD)[0m [1;34m[time = 5315][0m  PRESETN = 1 | PSELX = 1 | PWRITE = 1 | PENABLE = 1 | PSTRB = 2 | PREADY = 1 | PRDATA = 3599582656 | PSLVERR = 0 
# [1;32m[INFO] [0m [1;36m(ID=SCOREBOARD)[0m [1;34m[time = 5315][0m data strored at slave[103] = 1802038180 
# [1;32m[INFO] [0m [1;36m(ID=SCOREBOARD)[0m [1;34m[time = 5315][0m  PSTRB WRITE: ADDR = 103 | PSTRB = 2 | OLD_DATA = 3599582656 | NEW_DATA = 3599625152 
# [1;32m[INFO] [0m [1;36m(ID=SCOREBOARD)[0m [1;34m[time = 5365][0m READ TRANSFER
# [1;32m[INFO] [0m [1;36m(ID=SCOREBOARD)[0m [1;34m[time = 5365][0m  PRESETN = 1 | PSELX = 1 | PWRITE = 0 | PENABLE = 1 | PSTRB = 0 | PREADY = 1 | PRDATA = 3599625152 | PSLVERR = 0 
# [1;32m[INFO] [0m [1;36m(ID=SCOREBOARD)[0m [1;34m[time = 5365][0m data stored at slave[103] = 3599625152 
# [1;32m[INFO] [0m [1;36m(ID=SCOREBOARD)[0m [1;34m[time = 5365][0m ---------------------------------------
# [1;32m[INFO] [0m [1;36m(ID=SCOREBOARD)[0m [1;34m[time = 5365][0m ----           TEST PASS           ----
# [1;32m[INFO] [0m [1;36m(ID=SCOREBOARD)[0m [1;34m[time = 5365][0m ---------------------------------------
# [1;32m[INFO] [0m [1;36m(ID=SCOREBOARD)[0m [1;34m[time = 5415][0m WRITE TRANSFER
# [1;32m[INFO] [0m [1;36m(ID=SCOREBOARD)[0m [1;34m[time = 5415][0m  PRESETN = 1 | PSELX = 1 | PWRITE = 1 | PENABLE = 1 | PSTRB = 4 | PREADY = 1 | PRDATA = 3599625152 | PSLVERR = 0 
# [1;32m[INFO] [0m [1;36m(ID=SCOREBOARD)[0m [1;34m[time = 5415][0m data strored at slave[103] = 1776049409 
# [1;32m[INFO] [0m [1;36m(ID=SCOREBOARD)[0m [1;34m[time = 5415][0m  PSTRB WRITE: ADDR = 103 | PSTRB = 4 | OLD_DATA = 3599625152 | NEW_DATA = 3604802496 
# [1;32m[INFO] [0m [1;36m(ID=SCOREBOARD)[0m [1;34m[time = 5465][0m READ TRANSFER
# [1;32m[INFO] [0m [1;36m(ID=SCOREBOARD)[0m [1;34m[time = 5465][0m  PRESETN = 1 | PSELX = 1 | PWRITE = 0 | PENABLE = 1 | PSTRB = 0 | PREADY = 1 | PRDATA = 3604802496 | PSLVERR = 0 
# [1;32m[INFO] [0m [1;36m(ID=SCOREBOARD)[0m [1;34m[time = 5465][0m data stored at slave[103] = 3604802496 
# [1;32m[INFO] [0m [1;36m(ID=SCOREBOARD)[0m [1;34m[time = 5465][0m ---------------------------------------
# [1;32m[INFO] [0m [1;36m(ID=SCOREBOARD)[0m [1;34m[time = 5465][0m ----           TEST PASS           ----
# [1;32m[INFO] [0m [1;36m(ID=SCOREBOARD)[0m [1;34m[time = 5465][0m ---------------------------------------
# [1;32m[INFO] [0m [1;36m(ID=SCOREBOARD)[0m [1;34m[time = 5515][0m WRITE TRANSFER
# [1;32m[INFO] [0m [1;36m(ID=SCOREBOARD)[0m [1;34m[time = 5515][0m  PRESETN = 1 | PSELX = 1 | PWRITE = 1 | PENABLE = 1 | PSTRB = 8 | PREADY = 1 | PRDATA = 3604802496 | PSLVERR = 0 
# [1;32m[INFO] [0m [1;36m(ID=SCOREBOARD)[0m [1;34m[time = 5515][0m data strored at slave[103] = 1279530377 
# [1;32m[INFO] [0m [1;36m(ID=SCOREBOARD)[0m [1;34m[time = 5515][0m  PSTRB WRITE: ADDR = 103 | PSTRB = 8 | OLD_DATA = 3604802496 | NEW_DATA = 1289546688 
# [1;32m[INFO] [0m [1;36m(ID=SCOREBOARD)[0m [1;34m[time = 5565][0m READ TRANSFER
# [1;32m[INFO] [0m [1;36m(ID=SCOREBOARD)[0m [1;34m[time = 5565][0m  PRESETN = 1 | PSELX = 1 | PWRITE = 0 | PENABLE = 1 | PSTRB = 0 | PREADY = 1 | PRDATA = 1289546688 | PSLVERR = 0 
# [1;32m[INFO] [0m [1;36m(ID=SCOREBOARD)[0m [1;34m[time = 5565][0m data stored at slave[103] = 1289546688 
# [1;32m[INFO] [0m [1;36m(ID=SCOREBOARD)[0m [1;34m[time = 5565][0m ---------------------------------------
# [1;32m[INFO] [0m [1;36m(ID=SCOREBOARD)[0m [1;34m[time = 5565][0m ----           TEST PASS           ----
# [1;32m[INFO] [0m [1;36m(ID=SCOREBOARD)[0m [1;34m[time = 5565][0m ---------------------------------------
# [1;32m[INFO] [0m [1;36m(ID=SCOREBOARD)[0m [1;34m[time = 5615][0m WRITE TRANSFER
# [1;32m[INFO] [0m [1;36m(ID=SCOREBOARD)[0m [1;34m[time = 5615][0m  PRESETN = 1 | PSELX = 1 | PWRITE = 1 | PENABLE = 1 | PSTRB = 0 | PREADY = 1 | PRDATA = 1289546688 | PSLVERR = 0 
# [1;32m[INFO] [0m [1;36m(ID=SCOREBOARD)[0m [1;34m[time = 5615][0m data strored at slave[141] = 1889049761 
# [1;32m[INFO] [0m [1;36m(ID=SCOREBOARD)[0m [1;34m[time = 5665][0m WRITE TRANSFER
# [1;32m[INFO] [0m [1;36m(ID=SCOREBOARD)[0m [1;34m[time = 5665][0m  PRESETN = 1 | PSELX = 1 | PWRITE = 1 | PENABLE = 1 | PSTRB = 1 | PREADY = 1 | PRDATA = 1289546688 | PSLVERR = 0 
# [1;32m[INFO] [0m [1;36m(ID=SCOREBOARD)[0m [1;34m[time = 5665][0m data strored at slave[141] =  387564828 
# [1;32m[INFO] [0m [1;36m(ID=SCOREBOARD)[0m [1;34m[time = 5665][0m  PSTRB WRITE: ADDR = 141 | PSTRB = 1 | OLD_DATA = 1889049761 | NEW_DATA = 1889049628 
# [1;32m[INFO] [0m [1;36m(ID=SCOREBOARD)[0m [1;34m[time = 5715][0m READ TRANSFER
# [1;32m[INFO] [0m [1;36m(ID=SCOREBOARD)[0m [1;34m[time = 5715][0m  PRESETN = 1 | PSELX = 1 | PWRITE = 0 | PENABLE = 1 | PSTRB = 0 | PREADY = 1 | PRDATA = 1889049628 | PSLVERR = 0 
# [1;32m[INFO] [0m [1;36m(ID=SCOREBOARD)[0m [1;34m[time = 5715][0m data stored at slave[141] = 1889049628 
# [1;32m[INFO] [0m [1;36m(ID=SCOREBOARD)[0m [1;34m[time = 5715][0m ---------------------------------------
# [1;32m[INFO] [0m [1;36m(ID=SCOREBOARD)[0m [1;34m[time = 5715][0m ----           TEST PASS           ----
# [1;32m[INFO] [0m [1;36m(ID=SCOREBOARD)[0m [1;34m[time = 5715][0m ---------------------------------------
# [1;32m[INFO] [0m [1;36m(ID=SCOREBOARD)[0m [1;34m[time = 5765][0m WRITE TRANSFER
# [1;32m[INFO] [0m [1;36m(ID=SCOREBOARD)[0m [1;34m[time = 5765][0m  PRESETN = 1 | PSELX = 1 | PWRITE = 1 | PENABLE = 1 | PSTRB = 2 | PREADY = 1 | PRDATA = 1889049628 | PSLVERR = 0 
# [1;32m[INFO] [0m [1;36m(ID=SCOREBOARD)[0m [1;34m[time = 5765][0m data strored at slave[141] = 4170479664 
# [1;32m[INFO] [0m [1;36m(ID=SCOREBOARD)[0m [1;34m[time = 5765][0m  PSTRB WRITE: ADDR = 141 | PSTRB = 2 | OLD_DATA = 1889049628 | NEW_DATA = 1889040412 
# [1;32m[INFO] [0m [1;36m(ID=SCOREBOARD)[0m [1;34m[time = 5815][0m READ TRANSFER
# [1;32m[INFO] [0m [1;36m(ID=SCOREBOARD)[0m [1;34m[time = 5815][0m  PRESETN = 1 | PSELX = 1 | PWRITE = 0 | PENABLE = 1 | PSTRB = 0 | PREADY = 1 | PRDATA = 1889040412 | PSLVERR = 0 
# [1;32m[INFO] [0m [1;36m(ID=SCOREBOARD)[0m [1;34m[time = 5815][0m data stored at slave[141] = 1889040412 
# [1;32m[INFO] [0m [1;36m(ID=SCOREBOARD)[0m [1;34m[time = 5815][0m ---------------------------------------
# [1;32m[INFO] [0m [1;36m(ID=SCOREBOARD)[0m [1;34m[time = 5815][0m ----           TEST PASS           ----
# [1;32m[INFO] [0m [1;36m(ID=SCOREBOARD)[0m [1;34m[time = 5815][0m ---------------------------------------
# [1;32m[INFO] [0m [1;36m(ID=SCOREBOARD)[0m [1;34m[time = 5865][0m WRITE TRANSFER
# [1;32m[INFO] [0m [1;36m(ID=SCOREBOARD)[0m [1;34m[time = 5865][0m  PRESETN = 1 | PSELX = 1 | PWRITE = 1 | PENABLE = 1 | PSTRB = 4 | PREADY = 1 | PRDATA = 1889040412 | PSLVERR = 0 
# [1;32m[INFO] [0m [1;36m(ID=SCOREBOARD)[0m [1;34m[time = 5865][0m data strored at slave[141] =  989544403 
# [1;32m[INFO] [0m [1;36m(ID=SCOREBOARD)[0m [1;34m[time = 5865][0m  PSTRB WRITE: ADDR = 141 | PSTRB = 4 | OLD_DATA = 1889040412 | NEW_DATA = 1895528476 
# [1;32m[INFO] [0m [1;36m(ID=SCOREBOARD)[0m [1;34m[time = 5915][0m READ TRANSFER
# [1;32m[INFO] [0m [1;36m(ID=SCOREBOARD)[0m [1;34m[time = 5915][0m  PRESETN = 1 | PSELX = 1 | PWRITE = 0 | PENABLE = 1 | PSTRB = 0 | PREADY = 1 | PRDATA = 1895528476 | PSLVERR = 0 
# [1;32m[INFO] [0m [1;36m(ID=SCOREBOARD)[0m [1;34m[time = 5915][0m data stored at slave[141] = 1895528476 
# [1;32m[INFO] [0m [1;36m(ID=SCOREBOARD)[0m [1;34m[time = 5915][0m ---------------------------------------
# [1;32m[INFO] [0m [1;36m(ID=SCOREBOARD)[0m [1;34m[time = 5915][0m ----           TEST PASS           ----
# [1;32m[INFO] [0m [1;36m(ID=SCOREBOARD)[0m [1;34m[time = 5915][0m ---------------------------------------
# [1;32m[INFO] [0m [1;36m(ID=SCOREBOARD)[0m [1;34m[time = 5965][0m WRITE TRANSFER
# [1;32m[INFO] [0m [1;36m(ID=SCOREBOARD)[0m [1;34m[time = 5965][0m  PRESETN = 1 | PSELX = 1 | PWRITE = 1 | PENABLE = 1 | PSTRB = 8 | PREADY = 1 | PRDATA = 1895528476 | PSLVERR = 0 
# [1;32m[INFO] [0m [1;36m(ID=SCOREBOARD)[0m [1;34m[time = 5965][0m data strored at slave[141] = 2652245266 
# [1;32m[INFO] [0m [1;36m(ID=SCOREBOARD)[0m [1;34m[time = 5965][0m  PSTRB WRITE: ADDR = 141 | PSTRB = 8 | OLD_DATA = 1895528476 | NEW_DATA = 2667280412 
# [1;32m[INFO] [0m [1;36m(ID=SCOREBOARD)[0m [1;34m[time = 6015][0m READ TRANSFER
# [1;32m[INFO] [0m [1;36m(ID=SCOREBOARD)[0m [1;34m[time = 6015][0m  PRESETN = 1 | PSELX = 1 | PWRITE = 0 | PENABLE = 1 | PSTRB = 0 | PREADY = 1 | PRDATA = 2667280412 | PSLVERR = 0 
# [1;32m[INFO] [0m [1;36m(ID=SCOREBOARD)[0m [1;34m[time = 6015][0m data stored at slave[141] = 2667280412 
# [1;32m[INFO] [0m [1;36m(ID=SCOREBOARD)[0m [1;34m[time = 6015][0m ---------------------------------------
# [1;32m[INFO] [0m [1;36m(ID=SCOREBOARD)[0m [1;34m[time = 6015][0m ----           TEST PASS           ----
# [1;32m[INFO] [0m [1;36m(ID=SCOREBOARD)[0m [1;34m[time = 6015][0m ---------------------------------------
# [1;32m[INFO] [0m [1;36m(ID=SCOREBOARD)[0m [1;34m[time = 6065][0m WRITE TRANSFER
# [1;32m[INFO] [0m [1;36m(ID=SCOREBOARD)[0m [1;34m[time = 6065][0m  PRESETN = 1 | PSELX = 1 | PWRITE = 1 | PENABLE = 1 | PSTRB = 0 | PREADY = 1 | PRDATA = 2667280412 | PSLVERR = 0 
# [1;32m[INFO] [0m [1;36m(ID=SCOREBOARD)[0m [1;34m[time = 6065][0m data strored at slave[ 42] = 2244592659 
# [1;32m[INFO] [0m [1;36m(ID=SCOREBOARD)[0m [1;34m[time = 6115][0m WRITE TRANSFER
# [1;32m[INFO] [0m [1;36m(ID=SCOREBOARD)[0m [1;34m[time = 6115][0m  PRESETN = 1 | PSELX = 1 | PWRITE = 1 | PENABLE = 1 | PSTRB = 1 | PREADY = 1 | PRDATA = 2667280412 | PSLVERR = 0 
# [1;32m[INFO] [0m [1;36m(ID=SCOREBOARD)[0m [1;34m[time = 6115][0m data strored at slave[ 42] = 1887996157 
# [1;32m[INFO] [0m [1;36m(ID=SCOREBOARD)[0m [1;34m[time = 6115][0m  PSTRB WRITE: ADDR = 42 | PSTRB = 1 | OLD_DATA = 2244592659 | NEW_DATA = 2244592893 
# [1;32m[INFO] [0m [1;36m(ID=SCOREBOARD)[0m [1;34m[time = 6165][0m READ TRANSFER
# [1;32m[INFO] [0m [1;36m(ID=SCOREBOARD)[0m [1;34m[time = 6165][0m  PRESETN = 1 | PSELX = 1 | PWRITE = 0 | PENABLE = 1 | PSTRB = 0 | PREADY = 1 | PRDATA = 2244592893 | PSLVERR = 0 
# [1;32m[INFO] [0m [1;36m(ID=SCOREBOARD)[0m [1;34m[time = 6165][0m data stored at slave[ 42] = 2244592893 
# [1;32m[INFO] [0m [1;36m(ID=SCOREBOARD)[0m [1;34m[time = 6165][0m ---------------------------------------
# [1;32m[INFO] [0m [1;36m(ID=SCOREBOARD)[0m [1;34m[time = 6165][0m ----           TEST PASS           ----
# [1;32m[INFO] [0m [1;36m(ID=SCOREBOARD)[0m [1;34m[time = 6165][0m ---------------------------------------
# [1;32m[INFO] [0m [1;36m(ID=SCOREBOARD)[0m [1;34m[time = 6215][0m WRITE TRANSFER
# [1;32m[INFO] [0m [1;36m(ID=SCOREBOARD)[0m [1;34m[time = 6215][0m  PRESETN = 1 | PSELX = 1 | PWRITE = 1 | PENABLE = 1 | PSTRB = 2 | PREADY = 1 | PRDATA = 2244592893 | PSLVERR = 0 
# [1;32m[INFO] [0m [1;36m(ID=SCOREBOARD)[0m [1;34m[time = 6215][0m data strored at slave[ 42] = 3367981239 
# [1;32m[INFO] [0m [1;36m(ID=SCOREBOARD)[0m [1;34m[time = 6215][0m  PSTRB WRITE: ADDR = 42 | PSTRB = 2 | OLD_DATA = 2244592893 | NEW_DATA = 2244563197 
# [1;32m[INFO] [0m [1;36m(ID=SCOREBOARD)[0m [1;34m[time = 6265][0m READ TRANSFER
# [1;32m[INFO] [0m [1;36m(ID=SCOREBOARD)[0m [1;34m[time = 6265][0m  PRESETN = 1 | PSELX = 1 | PWRITE = 0 | PENABLE = 1 | PSTRB = 0 | PREADY = 1 | PRDATA = 2244563197 | PSLVERR = 0 
# [1;32m[INFO] [0m [1;36m(ID=SCOREBOARD)[0m [1;34m[time = 6265][0m data stored at slave[ 42] = 2244563197 
# [1;32m[INFO] [0m [1;36m(ID=SCOREBOARD)[0m [1;34m[time = 6265][0m ---------------------------------------
# [1;32m[INFO] [0m [1;36m(ID=SCOREBOARD)[0m [1;34m[time = 6265][0m ----           TEST PASS           ----
# [1;32m[INFO] [0m [1;36m(ID=SCOREBOARD)[0m [1;34m[time = 6265][0m ---------------------------------------
# [1;32m[INFO] [0m [1;36m(ID=SCOREBOARD)[0m [1;34m[time = 6315][0m WRITE TRANSFER
# [1;32m[INFO] [0m [1;36m(ID=SCOREBOARD)[0m [1;34m[time = 6315][0m  PRESETN = 1 | PSELX = 1 | PWRITE = 1 | PENABLE = 1 | PSTRB = 4 | PREADY = 1 | PRDATA = 2244563197 | PSLVERR = 0 
# [1;32m[INFO] [0m [1;36m(ID=SCOREBOARD)[0m [1;34m[time = 6315][0m data strored at slave[ 42] = 3176308001 
# [1;32m[INFO] [0m [1;36m(ID=SCOREBOARD)[0m [1;34m[time = 6315][0m  PSTRB WRITE: ADDR = 42 | PSTRB = 4 | OLD_DATA = 2244563197 | NEW_DATA = 2236764413 
# [1;32m[INFO] [0m [1;36m(ID=SCOREBOARD)[0m [1;34m[time = 6365][0m READ TRANSFER
# [1;32m[INFO] [0m [1;36m(ID=SCOREBOARD)[0m [1;34m[time = 6365][0m  PRESETN = 1 | PSELX = 1 | PWRITE = 0 | PENABLE = 1 | PSTRB = 0 | PREADY = 1 | PRDATA = 2236764413 | PSLVERR = 0 
# [1;32m[INFO] [0m [1;36m(ID=SCOREBOARD)[0m [1;34m[time = 6365][0m data stored at slave[ 42] = 2236764413 
# [1;32m[INFO] [0m [1;36m(ID=SCOREBOARD)[0m [1;34m[time = 6365][0m ---------------------------------------
# [1;32m[INFO] [0m [1;36m(ID=SCOREBOARD)[0m [1;34m[time = 6365][0m ----           TEST PASS           ----
# [1;32m[INFO] [0m [1;36m(ID=SCOREBOARD)[0m [1;34m[time = 6365][0m ---------------------------------------
# [1;32m[INFO] [0m [1;36m(ID=SCOREBOARD)[0m [1;34m[time = 6415][0m WRITE TRANSFER
# [1;32m[INFO] [0m [1;36m(ID=SCOREBOARD)[0m [1;34m[time = 6415][0m  PRESETN = 1 | PSELX = 1 | PWRITE = 1 | PENABLE = 1 | PSTRB = 8 | PREADY = 1 | PRDATA = 2236764413 | PSLVERR = 0 
# [1;32m[INFO] [0m [1;36m(ID=SCOREBOARD)[0m [1;34m[time = 6415][0m data strored at slave[ 42] = 1204041980 
# [1;32m[INFO] [0m [1;36m(ID=SCOREBOARD)[0m [1;34m[time = 6415][0m  PSTRB WRITE: ADDR = 42 | PSTRB = 8 | OLD_DATA = 2236764413 | NEW_DATA = 1196577021 
# [1;32m[INFO] [0m [1;36m(ID=SCOREBOARD)[0m [1;34m[time = 6465][0m READ TRANSFER
# [1;32m[INFO] [0m [1;36m(ID=SCOREBOARD)[0m [1;34m[time = 6465][0m  PRESETN = 1 | PSELX = 1 | PWRITE = 0 | PENABLE = 1 | PSTRB = 0 | PREADY = 1 | PRDATA = 1196577021 | PSLVERR = 0 
# [1;32m[INFO] [0m [1;36m(ID=SCOREBOARD)[0m [1;34m[time = 6465][0m data stored at slave[ 42] = 1196577021 
# [1;32m[INFO] [0m [1;36m(ID=SCOREBOARD)[0m [1;34m[time = 6465][0m ---------------------------------------
# [1;32m[INFO] [0m [1;36m(ID=SCOREBOARD)[0m [1;34m[time = 6465][0m ----           TEST PASS           ----
# [1;32m[INFO] [0m [1;36m(ID=SCOREBOARD)[0m [1;34m[time = 6465][0m ---------------------------------------
# [1;32m[INFO] [0m [1;36m(ID=SCOREBOARD)[0m [1;34m[time = 6515][0m WRITE TRANSFER
# [1;32m[INFO] [0m [1;36m(ID=SCOREBOARD)[0m [1;34m[time = 6515][0m  PRESETN = 1 | PSELX = 1 | PWRITE = 1 | PENABLE = 1 | PSTRB = 0 | PREADY = 1 | PRDATA = 1196577021 | PSLVERR = 0 
# [1;32m[INFO] [0m [1;36m(ID=SCOREBOARD)[0m [1;34m[time = 6515][0m data strored at slave[ 41] = 3930856598 
# [1;32m[INFO] [0m [1;36m(ID=SCOREBOARD)[0m [1;34m[time = 6565][0m WRITE TRANSFER
# [1;32m[INFO] [0m [1;36m(ID=SCOREBOARD)[0m [1;34m[time = 6565][0m  PRESETN = 1 | PSELX = 1 | PWRITE = 1 | PENABLE = 1 | PSTRB = 1 | PREADY = 1 | PRDATA = 1196577021 | PSLVERR = 0 
# [1;32m[INFO] [0m [1;36m(ID=SCOREBOARD)[0m [1;34m[time = 6565][0m data strored at slave[ 41] = 3923074916 
# [1;32m[INFO] [0m [1;36m(ID=SCOREBOARD)[0m [1;34m[time = 6565][0m  PSTRB WRITE: ADDR = 41 | PSTRB = 1 | OLD_DATA = 3930856598 | NEW_DATA = 3930856548 
# [1;32m[INFO] [0m [1;36m(ID=SCOREBOARD)[0m [1;34m[time = 6615][0m READ TRANSFER
# [1;32m[INFO] [0m [1;36m(ID=SCOREBOARD)[0m [1;34m[time = 6615][0m  PRESETN = 1 | PSELX = 1 | PWRITE = 0 | PENABLE = 1 | PSTRB = 0 | PREADY = 1 | PRDATA = 3930856548 | PSLVERR = 0 
# [1;32m[INFO] [0m [1;36m(ID=SCOREBOARD)[0m [1;34m[time = 6615][0m data stored at slave[ 41] = 3930856548 
# [1;32m[INFO] [0m [1;36m(ID=SCOREBOARD)[0m [1;34m[time = 6615][0m ---------------------------------------
# [1;32m[INFO] [0m [1;36m(ID=SCOREBOARD)[0m [1;34m[time = 6615][0m ----           TEST PASS           ----
# [1;32m[INFO] [0m [1;36m(ID=SCOREBOARD)[0m [1;34m[time = 6615][0m ---------------------------------------
# [1;32m[INFO] [0m [1;36m(ID=SCOREBOARD)[0m [1;34m[time = 6665][0m WRITE TRANSFER
# [1;32m[INFO] [0m [1;36m(ID=SCOREBOARD)[0m [1;34m[time = 6665][0m  PRESETN = 1 | PSELX = 1 | PWRITE = 1 | PENABLE = 1 | PSTRB = 2 | PREADY = 1 | PRDATA = 3930856548 | PSLVERR = 0 
# [1;32m[INFO] [0m [1;36m(ID=SCOREBOARD)[0m [1;34m[time = 6665][0m data strored at slave[ 41] = 3417490389 
# [1;32m[INFO] [0m [1;36m(ID=SCOREBOARD)[0m [1;34m[time = 6665][0m  PSTRB WRITE: ADDR = 41 | PSTRB = 2 | OLD_DATA = 3930856548 | NEW_DATA = 3930899300 
# [1;32m[INFO] [0m [1;36m(ID=SCOREBOARD)[0m [1;34m[time = 6715][0m READ TRANSFER
# [1;32m[INFO] [0m [1;36m(ID=SCOREBOARD)[0m [1;34m[time = 6715][0m  PRESETN = 1 | PSELX = 1 | PWRITE = 0 | PENABLE = 1 | PSTRB = 0 | PREADY = 1 | PRDATA = 3930899300 | PSLVERR = 0 
# [1;32m[INFO] [0m [1;36m(ID=SCOREBOARD)[0m [1;34m[time = 6715][0m data stored at slave[ 41] = 3930899300 
# [1;32m[INFO] [0m [1;36m(ID=SCOREBOARD)[0m [1;34m[time = 6715][0m ---------------------------------------
# [1;32m[INFO] [0m [1;36m(ID=SCOREBOARD)[0m [1;34m[time = 6715][0m ----           TEST PASS           ----
# [1;32m[INFO] [0m [1;36m(ID=SCOREBOARD)[0m [1;34m[time = 6715][0m ---------------------------------------
# [1;32m[INFO] [0m [1;36m(ID=SCOREBOARD)[0m [1;34m[time = 6765][0m WRITE TRANSFER
# [1;32m[INFO] [0m [1;36m(ID=SCOREBOARD)[0m [1;34m[time = 6765][0m  PRESETN = 1 | PSELX = 1 | PWRITE = 1 | PENABLE = 1 | PSTRB = 4 | PREADY = 1 | PRDATA = 3930899300 | PSLVERR = 0 
# [1;32m[INFO] [0m [1;36m(ID=SCOREBOARD)[0m [1;34m[time = 6765][0m data strored at slave[ 41] = 1026200619 
# [1;32m[INFO] [0m [1;36m(ID=SCOREBOARD)[0m [1;34m[time = 6765][0m  PSTRB WRITE: ADDR = 41 | PSTRB = 4 | OLD_DATA = 3930899300 | NEW_DATA = 3928671076 
# [1;32m[INFO] [0m [1;36m(ID=SCOREBOARD)[0m [1;34m[time = 6815][0m READ TRANSFER
# [1;32m[INFO] [0m [1;36m(ID=SCOREBOARD)[0m [1;34m[time = 6815][0m  PRESETN = 1 | PSELX = 1 | PWRITE = 0 | PENABLE = 1 | PSTRB = 0 | PREADY = 1 | PRDATA = 3928671076 | PSLVERR = 0 
# [1;32m[INFO] [0m [1;36m(ID=SCOREBOARD)[0m [1;34m[time = 6815][0m data stored at slave[ 41] = 3928671076 
# [1;32m[INFO] [0m [1;36m(ID=SCOREBOARD)[0m [1;34m[time = 6815][0m ---------------------------------------
# [1;32m[INFO] [0m [1;36m(ID=SCOREBOARD)[0m [1;34m[time = 6815][0m ----           TEST PASS           ----
# [1;32m[INFO] [0m [1;36m(ID=SCOREBOARD)[0m [1;34m[time = 6815][0m ---------------------------------------
# [1;32m[INFO] [0m [1;36m(ID=SCOREBOARD)[0m [1;34m[time = 6865][0m WRITE TRANSFER
# [1;32m[INFO] [0m [1;36m(ID=SCOREBOARD)[0m [1;34m[time = 6865][0m  PRESETN = 1 | PSELX = 1 | PWRITE = 1 | PENABLE = 1 | PSTRB = 8 | PREADY = 1 | PRDATA = 3928671076 | PSLVERR = 0 
# [1;32m[INFO] [0m [1;36m(ID=SCOREBOARD)[0m [1;34m[time = 6865][0m data strored at slave[ 41] = 1361955134 
# [1;32m[INFO] [0m [1;36m(ID=SCOREBOARD)[0m [1;34m[time = 6865][0m  PSTRB WRITE: ADDR = 41 | PSTRB = 8 | OLD_DATA = 3928671076 | NEW_DATA = 1361757028 
# [1;32m[INFO] [0m [1;36m(ID=SCOREBOARD)[0m [1;34m[time = 6915][0m READ TRANSFER
# [1;32m[INFO] [0m [1;36m(ID=SCOREBOARD)[0m [1;34m[time = 6915][0m  PRESETN = 1 | PSELX = 1 | PWRITE = 0 | PENABLE = 1 | PSTRB = 0 | PREADY = 1 | PRDATA = 1361757028 | PSLVERR = 0 
# [1;32m[INFO] [0m [1;36m(ID=SCOREBOARD)[0m [1;34m[time = 6915][0m data stored at slave[ 41] = 1361757028 
# [1;32m[INFO] [0m [1;36m(ID=SCOREBOARD)[0m [1;34m[time = 6915][0m ---------------------------------------
# [1;32m[INFO] [0m [1;36m(ID=SCOREBOARD)[0m [1;34m[time = 6915][0m ----           TEST PASS           ----
# [1;32m[INFO] [0m [1;36m(ID=SCOREBOARD)[0m [1;34m[time = 6915][0m ---------------------------------------
# [1;32m[INFO] [0m [1;36m(ID=SCOREBOARD)[0m [1;34m[time = 6965][0m WRITE TRANSFER
# [1;32m[INFO] [0m [1;36m(ID=SCOREBOARD)[0m [1;34m[time = 6965][0m  PRESETN = 1 | PSELX = 1 | PWRITE = 1 | PENABLE = 1 | PSTRB = 0 | PREADY = 1 | PRDATA = 1361757028 | PSLVERR = 0 
# [1;32m[INFO] [0m [1;36m(ID=SCOREBOARD)[0m [1;34m[time = 6965][0m data strored at slave[ 19] = 3270030575 
# [1;32m[INFO] [0m [1;36m(ID=SCOREBOARD)[0m [1;34m[time = 7015][0m WRITE TRANSFER
# [1;32m[INFO] [0m [1;36m(ID=SCOREBOARD)[0m [1;34m[time = 7015][0m  PRESETN = 1 | PSELX = 1 | PWRITE = 1 | PENABLE = 1 | PSTRB = 1 | PREADY = 1 | PRDATA = 1361757028 | PSLVERR = 0 
# [1;32m[INFO] [0m [1;36m(ID=SCOREBOARD)[0m [1;34m[time = 7015][0m data strored at slave[ 19] =  525855367 
# [1;32m[INFO] [0m [1;36m(ID=SCOREBOARD)[0m [1;34m[time = 7015][0m  PSTRB WRITE: ADDR = 19 | PSTRB = 1 | OLD_DATA = 3270030575 | NEW_DATA = 3270030471 
# [1;32m[INFO] [0m [1;36m(ID=SCOREBOARD)[0m [1;34m[time = 7065][0m READ TRANSFER
# [1;32m[INFO] [0m [1;36m(ID=SCOREBOARD)[0m [1;34m[time = 7065][0m  PRESETN = 1 | PSELX = 1 | PWRITE = 0 | PENABLE = 1 | PSTRB = 0 | PREADY = 1 | PRDATA = 3270030471 | PSLVERR = 0 
# [1;32m[INFO] [0m [1;36m(ID=SCOREBOARD)[0m [1;34m[time = 7065][0m data stored at slave[ 19] = 3270030471 
# [1;32m[INFO] [0m [1;36m(ID=SCOREBOARD)[0m [1;34m[time = 7065][0m ---------------------------------------
# [1;32m[INFO] [0m [1;36m(ID=SCOREBOARD)[0m [1;34m[time = 7065][0m ----           TEST PASS           ----
# [1;32m[INFO] [0m [1;36m(ID=SCOREBOARD)[0m [1;34m[time = 7065][0m ---------------------------------------
# [1;32m[INFO] [0m [1;36m(ID=SCOREBOARD)[0m [1;34m[time = 7115][0m WRITE TRANSFER
# [1;32m[INFO] [0m [1;36m(ID=SCOREBOARD)[0m [1;34m[time = 7115][0m  PRESETN = 1 | PSELX = 1 | PWRITE = 1 | PENABLE = 1 | PSTRB = 2 | PREADY = 1 | PRDATA = 3270030471 | PSLVERR = 0 
# [1;32m[INFO] [0m [1;36m(ID=SCOREBOARD)[0m [1;34m[time = 7115][0m data strored at slave[ 19] =  152412599 
# [1;32m[INFO] [0m [1;36m(ID=SCOREBOARD)[0m [1;34m[time = 7115][0m  PSTRB WRITE: ADDR = 19 | PSTRB = 2 | OLD_DATA = 3270030471 | NEW_DATA = 3270025607 
# [1;32m[INFO] [0m [1;36m(ID=SCOREBOARD)[0m [1;34m[time = 7165][0m READ TRANSFER
# [1;32m[INFO] [0m [1;36m(ID=SCOREBOARD)[0m [1;34m[time = 7165][0m  PRESETN = 1 | PSELX = 1 | PWRITE = 0 | PENABLE = 1 | PSTRB = 0 | PREADY = 1 | PRDATA = 3270025607 | PSLVERR = 0 
# [1;32m[INFO] [0m [1;36m(ID=SCOREBOARD)[0m [1;34m[time = 7165][0m data stored at slave[ 19] = 3270025607 
# [1;32m[INFO] [0m [1;36m(ID=SCOREBOARD)[0m [1;34m[time = 7165][0m ---------------------------------------
# [1;32m[INFO] [0m [1;36m(ID=SCOREBOARD)[0m [1;34m[time = 7165][0m ----           TEST PASS           ----
# [1;32m[INFO] [0m [1;36m(ID=SCOREBOARD)[0m [1;34m[time = 7165][0m ---------------------------------------
# [1;32m[INFO] [0m [1;36m(ID=SCOREBOARD)[0m [1;34m[time = 7215][0m WRITE TRANSFER
# [1;32m[INFO] [0m [1;36m(ID=SCOREBOARD)[0m [1;34m[time = 7215][0m  PRESETN = 1 | PSELX = 1 | PWRITE = 1 | PENABLE = 1 | PSTRB = 4 | PREADY = 1 | PRDATA = 3270025607 | PSLVERR = 0 
# [1;32m[INFO] [0m [1;36m(ID=SCOREBOARD)[0m [1;34m[time = 7215][0m data strored at slave[ 19] = 1391905456 
# [1;32m[INFO] [0m [1;36m(ID=SCOREBOARD)[0m [1;34m[time = 7215][0m  PSTRB WRITE: ADDR = 19 | PSTRB = 4 | OLD_DATA = 3270025607 | NEW_DATA = 3270943111 
# [1;32m[INFO] [0m [1;36m(ID=SCOREBOARD)[0m [1;34m[time = 7265][0m READ TRANSFER
# [1;32m[INFO] [0m [1;36m(ID=SCOREBOARD)[0m [1;34m[time = 7265][0m  PRESETN = 1 | PSELX = 1 | PWRITE = 0 | PENABLE = 1 | PSTRB = 0 | PREADY = 1 | PRDATA = 3270943111 | PSLVERR = 0 
# [1;32m[INFO] [0m [1;36m(ID=SCOREBOARD)[0m [1;34m[time = 7265][0m data stored at slave[ 19] = 3270943111 
# [1;32m[INFO] [0m [1;36m(ID=SCOREBOARD)[0m [1;34m[time = 7265][0m ---------------------------------------
# [1;32m[INFO] [0m [1;36m(ID=SCOREBOARD)[0m [1;34m[time = 7265][0m ----           TEST PASS           ----
# [1;32m[INFO] [0m [1;36m(ID=SCOREBOARD)[0m [1;34m[time = 7265][0m ---------------------------------------
# [1;32m[INFO] [0m [1;36m(ID=SCOREBOARD)[0m [1;34m[time = 7315][0m WRITE TRANSFER
# [1;32m[INFO] [0m [1;36m(ID=SCOREBOARD)[0m [1;34m[time = 7315][0m  PRESETN = 1 | PSELX = 1 | PWRITE = 1 | PENABLE = 1 | PSTRB = 8 | PREADY = 1 | PRDATA = 3270943111 | PSLVERR = 0 
# [1;32m[INFO] [0m [1;36m(ID=SCOREBOARD)[0m [1;34m[time = 7315][0m data strored at slave[ 19] = 4262823554 
# [1;32m[INFO] [0m [1;36m(ID=SCOREBOARD)[0m [1;34m[time = 7315][0m  PSTRB WRITE: ADDR = 19 | PSTRB = 8 | OLD_DATA = 3270943111 | NEW_DATA = 4277576071 
# [1;32m[INFO] [0m [1;36m(ID=SCOREBOARD)[0m [1;34m[time = 7365][0m READ TRANSFER
