# vsim -vopt work.top -voptargs="+acc=npr" -assertdebug -l simulation.log -coverage -c -do "coverage save -onexit -assert -directive -cvg -codeAll coverage.ucdb; run -all; exit" 
# Start time: 21:25:48 on Dec 06,2025
# ** Note: (vsim-3812) Design is being optimized...
# //  Questa Sim
# //  Version 10.6c linux Jul 25 2017
# //
# //  Copyright 1991-2017 Mentor Graphics Corporation
# //  All Rights Reserved.
# //
# //  QuestaSim and its associated documentation contain trade
# //  secrets and commercial or financial information that are the property of
# //  Mentor Graphics Corporation and are privileged, confidential,
# //  and exempt from disclosure under the Freedom of Information Act,
# //  5 U.S.C. Section 552. Furthermore, this information
# //  is prohibited from disclosure under the Trade Secrets Act,
# //  18 U.S.C. Section 1905.
# //
# Loading sv_std.std
# Loading work.apb_master_interface(fast)
# Loading mtiUvm.uvm_pkg
# Loading work.apb_master_pkg(fast)
# Loading work.apb_master_top_sv_unit(fast)
# Loading work.top(fast)
# Loading work.apb_master_interface(fast)
# Loading work.apb_master_assertions(fast)
# Loading work.apb_slave(fast)
# Loading mtiUvm.questa_uvm_pkg(fast)
# Loading /tools/mentor/questasim_10.6c/questasim/uvm-1.1d/linux/uvm_dpi.so
# coverage save -onexit -assert -directive -cvg -codeAll coverage.ucdb
#  run -all
# ----------------------------------------------------------------
# UVM-1.1d
# (C) 2007-2013 Mentor Graphics Corporation
# (C) 2007-2013 Cadence Design Systems, Inc.
# (C) 2006-2013 Synopsys, Inc.
# (C) 2011-2013 Cypress Semiconductor Corp.
# ----------------------------------------------------------------
# 
#   ***********       IMPORTANT RELEASE NOTES         ************
# 
#   You are using a version of the UVM library that has been compiled
#   with `UVM_NO_DEPRECATED undefined.
#   See http://www.eda.org/svdb/view.php?id=3313 for more details.
# 
#   You are using a version of the UVM library that has been compiled
#   with `UVM_OBJECT_MUST_HAVE_CONSTRUCTOR undefined.
#   See http://www.eda.org/svdb/view.php?id=3770 for more details.
# 
#       (Specify +UVM_NO_RELNOTES to turn off this notice)
# 
# UVM_INFO verilog_src/questa_uvm_pkg-1.2/src/questa_uvm_pkg.sv(215) @ 0: reporter [Questa UVM] QUESTA_UVM-1.2.3
# UVM_INFO verilog_src/questa_uvm_pkg-1.2/src/questa_uvm_pkg.sv(217) @ 0: reporter [Questa UVM]  questa_uvm::init(+struct)
# UVM_INFO @ 0: reporter [RNTST] Running test apb_master_regression_test...
# ** Warning: (vsim-3881) apb_master_subscriber.sv(91): Sign-and-Width conversion applied in bin 'low_data' for Coverpoint 'prdata'. Value '-1' changed to '0 (minimum)' value.
#    Time: 0 ns  Iteration: 7  Region: /uvm_pkg::uvm_phase::m_run_phases
# ** Warning: (vsim-3882) apb_master_subscriber.sv(91): Out of bounds value range in bin 'low_data' for Coverpoint 'prdata' converted to nearest valid bounded range of [0:0].
#    Time: 0 ns  Iteration: 7  Region: /uvm_pkg::uvm_phase::m_run_phases
# ** Warning: (vsim-3881) apb_master_subscriber.sv(92): Sign-and-Width conversion applied in bin 'medium_data' for Coverpoint 'prdata'. Value '-1' changed to '0 (minimum)' value.
#    Time: 0 ns  Iteration: 7  Region: /uvm_pkg::uvm_phase::m_run_phases
# ** Warning: (vsim-3882) apb_master_subscriber.sv(92): Out of bounds value range in bin 'medium_data' for Coverpoint 'prdata' converted to nearest valid bounded range of [0:0].
#    Time: 0 ns  Iteration: 7  Region: /uvm_pkg::uvm_phase::m_run_phases
# ** Warning: (vsim-3881) apb_master_subscriber.sv(93): Sign-and-Width conversion applied in bin 'high_data' for Coverpoint 'prdata'. Value '-1' changed to '0 (minimum)' value.
#    Time: 0 ns  Iteration: 7  Region: /uvm_pkg::uvm_phase::m_run_phases
# ** Warning: (vsim-3882) apb_master_subscriber.sv(93): Out of bounds value range in bin 'high_data' for Coverpoint 'prdata' converted to nearest valid bounded range of [0:0].
#    Time: 0 ns  Iteration: 7  Region: /uvm_pkg::uvm_phase::m_run_phases
# ** Warning: (vsim-3881) apb_master_subscriber.sv(94): Sign-and-Width conversion applied in bin 'max_data' for Coverpoint 'prdata'. Value '-1' changed to '0 (minimum)' value.
#    Time: 0 ns  Iteration: 7  Region: /uvm_pkg::uvm_phase::m_run_phases
# ** Warning: (vsim-3882) apb_master_subscriber.sv(94): Out of bounds value range in bin 'max_data' for Coverpoint 'prdata' converted to nearest valid bounded range of [0:0].
#    Time: 0 ns  Iteration: 7  Region: /uvm_pkg::uvm_phase::m_run_phases
# [1;32m[INFO] [0m [1;36m(ID=UVMTOP)[0m [1;34m[time = 0][0m UVM testbench topology:
# ---------------------------------------------------------------------------
# Name                          Type                              Size  Value
# ---------------------------------------------------------------------------
# uvm_test_top                  apb_master_regression_test        -     @471 
#   apb_master_environment      apb_master_environment            -     @478 
#     apb_master_active_agt     apb_master_active_agent           -     @494 
#       apb_master_active_driv  apb_master_driver                 -     @543 
#         rsp_port              uvm_analysis_port                 -     @558 
#         seq_item_port         uvm_seq_item_pull_port            -     @550 
#       apb_master_active_mon   apb_master_active_monitor         -     @675 
#         active_mon_port       uvm_analysis_port                 -     @682 
#       apb_master_active_seqr  apb_master_sequencer              -     @566 
#         rsp_export            uvm_analysis_export               -     @573 
#         seq_item_export       uvm_seq_item_pull_imp             -     @667 
#         arbitration_queue     array                             0     -    
#         lock_queue            array                             0     -    
#         num_last_reqs         integral                          32    'd1  
#         num_last_rsps         integral                          32    'd1  
#     apb_master_passive_agt    apb_master_passive_agent          -     @501 
#       apb_master_passive_mon  apb_master_passive_monitor        -     @702 
#         passive_mon_port      uvm_analysis_port                 -     @709 
#     apb_master_scoreboard     apb_master_scoreboard             -     @508 
#       active_scb_port         uvm_analysis_imp_active_mon_scb   -     @722 
#       passive_scb_port        uvm_analysis_imp_passive_mon_scb  -     @730 
#     apb_master_subscriber     apb_master_subscriber             -     @515 
#       cov_active_mon_port     uvm_analysis_imp_active_mon_cg    -     @522 
#       cov_passive_mon_port    uvm_analysis_imp_passive_mon_cg   -     @530 
# ---------------------------------------------------------------------------
# 
# [1;32m[INFO] [0m [1;36m(ID=SCOREBOARD)[0m [1;34m[time = 5][0m PRESETN = 0 | PSELX = 0 | PREADY = 0 | PRDATA = 0 | PSLVERR = 0 
# [1;32m[INFO] [0m [1;36m(ID=SCOREBOARD)[0m [1;34m[time = 5][0m ---------------------------------------
# [1;32m[INFO] [0m [1;36m(ID=SCOREBOARD)[0m [1;34m[time = 5][0m ----           TEST PASS           ----
# [1;32m[INFO] [0m [1;36m(ID=SCOREBOARD)[0m [1;34m[time = 5][0m ---------------------------------------
# [1;32m[INFO] [0m [1;36m(ID=SCOREBOARD)[0m [1;34m[time = 15][0m PRESETN = 0 | PSELX = 0 | PREADY = 0 | PRDATA = 0 | PSLVERR = 0 
# [1;32m[INFO] [0m [1;36m(ID=SCOREBOARD)[0m [1;34m[time = 15][0m ---------------------------------------
# [1;32m[INFO] [0m [1;36m(ID=SCOREBOARD)[0m [1;34m[time = 15][0m ----           TEST PASS           ----
# [1;32m[INFO] [0m [1;36m(ID=SCOREBOARD)[0m [1;34m[time = 15][0m ---------------------------------------
# [1;32m[INFO] [0m [1;36m(ID=SCOREBOARD)[0m [1;34m[time = 25][0m PRESETN = 1 | PSELX = 0 | PREADY = 0 | PRDATA = 0 | PSLVERR = 0 
# [1;32m[INFO] [0m [1;36m(ID=SCOREBOARD)[0m [1;34m[time = 25][0m ---------------------------------------
# [1;32m[INFO] [0m [1;36m(ID=SCOREBOARD)[0m [1;34m[time = 25][0m ----           TEST PASS           ----
# [1;32m[INFO] [0m [1;36m(ID=SCOREBOARD)[0m [1;34m[time = 25][0m ---------------------------------------
# [1;32m[INFO] [0m [1;36m(ID=SCOREBOARD)[0m [1;34m[time = 85][0m WRITE TRANSFER
# [1;32m[INFO] [0m [1;36m(ID=SCOREBOARD)[0m [1;34m[time = 85][0m  PRESETN = 1 | PSELX = 1 | PWRITE = 1 | PENABLE = 1 | PSTRB = 0 | PREADY = 1 | PRDATA = 0 | PSLVERR = 0 
# [1;32m[INFO] [0m [1;36m(ID=SCOREBOARD)[0m [1;34m[time = 85][0m data strored at slave[103] =  986278555 
# [1;32m[INFO] [0m [1;36m(ID=SCOREBOARD)[0m [1;34m[time = 115][0m PRESETN = 1 | PSELX = 0 | PREADY = 0 | PRDATA = 0 | PSLVERR = 0 
# [1;32m[INFO] [0m [1;36m(ID=SCOREBOARD)[0m [1;34m[time = 115][0m ---------------------------------------
# [1;32m[INFO] [0m [1;36m(ID=SCOREBOARD)[0m [1;34m[time = 115][0m ----           TEST PASS           ----
# [1;32m[INFO] [0m [1;36m(ID=SCOREBOARD)[0m [1;34m[time = 115][0m ---------------------------------------
# [1;32m[INFO] [0m [1;36m(ID=SCOREBOARD)[0m [1;34m[time = 135][0m READ TRANSFER
# [1;32m[INFO] [0m [1;36m(ID=SCOREBOARD)[0m [1;34m[time = 135][0m  PRESETN = 1 | PSELX = 1 | PWRITE = 0 | PENABLE = 1 | PSTRB = 0 | PREADY = 1 | PRDATA = 986278555 | PSLVERR = 0 
# [1;32m[INFO] [0m [1;36m(ID=SCOREBOARD)[0m [1;34m[time = 135][0m data stored at slave[103] =  986278555 
# [1;32m[INFO] [0m [1;36m(ID=SCOREBOARD)[0m [1;34m[time = 135][0m ---------------------------------------
# [1;32m[INFO] [0m [1;36m(ID=SCOREBOARD)[0m [1;34m[time = 135][0m ----           TEST PASS           ----
# [1;32m[INFO] [0m [1;36m(ID=SCOREBOARD)[0m [1;34m[time = 135][0m ---------------------------------------
# [1;32m[INFO] [0m [1;36m(ID=SCOREBOARD)[0m [1;34m[time = 185][0m WRITE TRANSFER
# [1;32m[INFO] [0m [1;36m(ID=SCOREBOARD)[0m [1;34m[time = 185][0m  PRESETN = 1 | PSELX = 1 | PWRITE = 1 | PENABLE = 1 | PSTRB = 0 | PREADY = 1 | PRDATA = 986278555 | PSLVERR = 0 
# [1;32m[INFO] [0m [1;36m(ID=SCOREBOARD)[0m [1;34m[time = 185][0m data strored at slave[ 23] = 2239947623 
# [1;32m[INFO] [0m [1;36m(ID=SCOREBOARD)[0m [1;34m[time = 235][0m WRITE TRANSFER
# [1;32m[INFO] [0m [1;36m(ID=SCOREBOARD)[0m [1;34m[time = 235][0m  PRESETN = 1 | PSELX = 1 | PWRITE = 1 | PENABLE = 1 | PSTRB = 0 | PREADY = 1 | PRDATA = 986278555 | PSLVERR = 0 
# [1;32m[INFO] [0m [1;36m(ID=SCOREBOARD)[0m [1;34m[time = 235][0m data strored at slave[ 63] = 2143041459 
# [1;32m[INFO] [0m [1;36m(ID=SCOREBOARD)[0m [1;34m[time = 285][0m WRITE TRANSFER
# [1;32m[INFO] [0m [1;36m(ID=SCOREBOARD)[0m [1;34m[time = 285][0m  PRESETN = 1 | PSELX = 1 | PWRITE = 1 | PENABLE = 1 | PSTRB = 0 | PREADY = 1 | PRDATA = 986278555 | PSLVERR = 0 
# [1;32m[INFO] [0m [1;36m(ID=SCOREBOARD)[0m [1;34m[time = 285][0m data strored at slave[ 50] = 1195014637 
# [1;32m[INFO] [0m [1;36m(ID=SCOREBOARD)[0m [1;34m[time = 335][0m READ TRANSFER
# [1;32m[INFO] [0m [1;36m(ID=SCOREBOARD)[0m [1;34m[time = 335][0m  PRESETN = 1 | PSELX = 1 | PWRITE = 0 | PENABLE = 1 | PSTRB = 0 | PREADY = 1 | PRDATA = 2239947623 | PSLVERR = 0 
# [1;32m[INFO] [0m [1;36m(ID=SCOREBOARD)[0m [1;34m[time = 335][0m data stored at slave[ 23] = 2239947623 
# [1;32m[INFO] [0m [1;36m(ID=SCOREBOARD)[0m [1;34m[time = 335][0m ---------------------------------------
# [1;32m[INFO] [0m [1;36m(ID=SCOREBOARD)[0m [1;34m[time = 335][0m ----           TEST PASS           ----
# [1;32m[INFO] [0m [1;36m(ID=SCOREBOARD)[0m [1;34m[time = 335][0m ---------------------------------------
# [1;32m[INFO] [0m [1;36m(ID=SCOREBOARD)[0m [1;34m[time = 385][0m READ TRANSFER
# [1;32m[INFO] [0m [1;36m(ID=SCOREBOARD)[0m [1;34m[time = 385][0m  PRESETN = 1 | PSELX = 1 | PWRITE = 0 | PENABLE = 1 | PSTRB = 0 | PREADY = 1 | PRDATA = 2143041459 | PSLVERR = 0 
# [1;32m[INFO] [0m [1;36m(ID=SCOREBOARD)[0m [1;34m[time = 385][0m data stored at slave[ 63] = 2143041459 
# [1;32m[INFO] [0m [1;36m(ID=SCOREBOARD)[0m [1;34m[time = 385][0m ---------------------------------------
# [1;32m[INFO] [0m [1;36m(ID=SCOREBOARD)[0m [1;34m[time = 385][0m ----           TEST PASS           ----
# [1;32m[INFO] [0m [1;36m(ID=SCOREBOARD)[0m [1;34m[time = 385][0m ---------------------------------------
# [1;32m[INFO] [0m [1;36m(ID=SCOREBOARD)[0m [1;34m[time = 435][0m READ TRANSFER
# [1;32m[INFO] [0m [1;36m(ID=SCOREBOARD)[0m [1;34m[time = 435][0m  PRESETN = 1 | PSELX = 1 | PWRITE = 0 | PENABLE = 1 | PSTRB = 0 | PREADY = 1 | PRDATA = 1195014637 | PSLVERR = 0 
# [1;32m[INFO] [0m [1;36m(ID=SCOREBOARD)[0m [1;34m[time = 435][0m data stored at slave[ 50] = 1195014637 
# [1;32m[INFO] [0m [1;36m(ID=SCOREBOARD)[0m [1;34m[time = 435][0m ---------------------------------------
# [1;32m[INFO] [0m [1;36m(ID=SCOREBOARD)[0m [1;34m[time = 435][0m ----           TEST PASS           ----
# [1;32m[INFO] [0m [1;36m(ID=SCOREBOARD)[0m [1;34m[time = 435][0m ---------------------------------------
# [1;32m[INFO] [0m [1;36m(ID=SCOREBOARD)[0m [1;34m[time = 485][0m WRITE TRANSFER
# [1;32m[INFO] [0m [1;36m(ID=SCOREBOARD)[0m [1;34m[time = 485][0m  PRESETN = 1 | PSELX = 1 | PWRITE = 1 | PENABLE = 1 | PSTRB = 0 | PREADY = 1 | PRDATA = 1195014637 | PSLVERR = 0 
# [1;32m[INFO] [0m [1;36m(ID=SCOREBOARD)[0m [1;34m[time = 485][0m data strored at slave[ 39] = 1859156351 
# [1;32m[INFO] [0m [1;36m(ID=SCOREBOARD)[0m [1;34m[time = 535][0m READ TRANSFER
# [1;32m[INFO] [0m [1;36m(ID=SCOREBOARD)[0m [1;34m[time = 535][0m  PRESETN = 1 | PSELX = 1 | PWRITE = 0 | PENABLE = 1 | PSTRB = 0 | PREADY = 1 | PRDATA = 1859156351 | PSLVERR = 0 
# [1;32m[INFO] [0m [1;36m(ID=SCOREBOARD)[0m [1;34m[time = 535][0m data stored at slave[ 39] = 1859156351 
# [1;32m[INFO] [0m [1;36m(ID=SCOREBOARD)[0m [1;34m[time = 535][0m ---------------------------------------
# [1;32m[INFO] [0m [1;36m(ID=SCOREBOARD)[0m [1;34m[time = 535][0m ----           TEST PASS           ----
# [1;32m[INFO] [0m [1;36m(ID=SCOREBOARD)[0m [1;34m[time = 535][0m ---------------------------------------
# [1;32m[INFO] [0m [1;36m(ID=SCOREBOARD)[0m [1;34m[time = 585][0m WRITE TRANSFER
# [1;32m[INFO] [0m [1;36m(ID=SCOREBOARD)[0m [1;34m[time = 585][0m  PRESETN = 1 | PSELX = 1 | PWRITE = 1 | PENABLE = 1 | PSTRB = 0 | PREADY = 1 | PRDATA = 1859156351 | PSLVERR = 0 
# [1;32m[INFO] [0m [1;36m(ID=SCOREBOARD)[0m [1;34m[time = 585][0m data strored at slave[ 52] = 1528856544 
# [1;32m[INFO] [0m [1;36m(ID=SCOREBOARD)[0m [1;34m[time = 635][0m READ TRANSFER
# [1;32m[INFO] [0m [1;36m(ID=SCOREBOARD)[0m [1;34m[time = 635][0m  PRESETN = 1 | PSELX = 1 | PWRITE = 0 | PENABLE = 1 | PSTRB = 0 | PREADY = 1 | PRDATA = 1528856544 | PSLVERR = 0 
# [1;32m[INFO] [0m [1;36m(ID=SCOREBOARD)[0m [1;34m[time = 635][0m data stored at slave[ 52] = 1528856544 
# [1;32m[INFO] [0m [1;36m(ID=SCOREBOARD)[0m [1;34m[time = 635][0m ---------------------------------------
# [1;32m[INFO] [0m [1;36m(ID=SCOREBOARD)[0m [1;34m[time = 635][0m ----           TEST PASS           ----
# [1;32m[INFO] [0m [1;36m(ID=SCOREBOARD)[0m [1;34m[time = 635][0m ---------------------------------------
# [1;32m[INFO] [0m [1;36m(ID=SCOREBOARD)[0m [1;34m[time = 685][0m WRITE TRANSFER
# [1;32m[INFO] [0m [1;36m(ID=SCOREBOARD)[0m [1;34m[time = 685][0m  PRESETN = 1 | PSELX = 1 | PWRITE = 1 | PENABLE = 1 | PSTRB = 0 | PREADY = 1 | PRDATA = 1528856544 | PSLVERR = 0 
# [1;32m[INFO] [0m [1;36m(ID=SCOREBOARD)[0m [1;34m[time = 685][0m data strored at slave[  2] = 2059391277 
# [1;32m[INFO] [0m [1;36m(ID=SCOREBOARD)[0m [1;34m[time = 735][0m READ TRANSFER
# [1;32m[INFO] [0m [1;36m(ID=SCOREBOARD)[0m [1;34m[time = 735][0m  PRESETN = 1 | PSELX = 1 | PWRITE = 0 | PENABLE = 1 | PSTRB = 0 | PREADY = 1 | PRDATA = 2059391277 | PSLVERR = 0 
# [1;32m[INFO] [0m [1;36m(ID=SCOREBOARD)[0m [1;34m[time = 735][0m data stored at slave[  2] = 2059391277 
# [1;32m[INFO] [0m [1;36m(ID=SCOREBOARD)[0m [1;34m[time = 735][0m ---------------------------------------
# [1;32m[INFO] [0m [1;36m(ID=SCOREBOARD)[0m [1;34m[time = 735][0m ----           TEST PASS           ----
# [1;32m[INFO] [0m [1;36m(ID=SCOREBOARD)[0m [1;34m[time = 735][0m ---------------------------------------
# [1;32m[INFO] [0m [1;36m(ID=SCOREBOARD)[0m [1;34m[time = 785][0m WRITE TRANSFER
# [1;32m[INFO] [0m [1;36m(ID=SCOREBOARD)[0m [1;34m[time = 785][0m  PRESETN = 1 | PSELX = 1 | PWRITE = 1 | PENABLE = 1 | PSTRB = 0 | PREADY = 1 | PRDATA = 2059391277 | PSLVERR = 0 
# [1;32m[INFO] [0m [1;36m(ID=SCOREBOARD)[0m [1;34m[time = 785][0m data strored at slave[ 51] = 3987945672 
# [1;32m[INFO] [0m [1;36m(ID=SCOREBOARD)[0m [1;34m[time = 835][0m READ TRANSFER
# [1;32m[INFO] [0m [1;36m(ID=SCOREBOARD)[0m [1;34m[time = 835][0m  PRESETN = 1 | PSELX = 1 | PWRITE = 0 | PENABLE = 1 | PSTRB = 0 | PREADY = 1 | PRDATA = 3987945672 | PSLVERR = 0 
# [1;32m[INFO] [0m [1;36m(ID=SCOREBOARD)[0m [1;34m[time = 835][0m data stored at slave[ 51] = 3987945672 
# [1;32m[INFO] [0m [1;36m(ID=SCOREBOARD)[0m [1;34m[time = 835][0m ---------------------------------------
# [1;32m[INFO] [0m [1;36m(ID=SCOREBOARD)[0m [1;34m[time = 835][0m ----           TEST PASS           ----
# [1;32m[INFO] [0m [1;36m(ID=SCOREBOARD)[0m [1;34m[time = 835][0m ---------------------------------------
# [1;32m[INFO] [0m [1;36m(ID=SCOREBOARD)[0m [1;34m[time = 885][0m WRITE TRANSFER
# [1;32m[INFO] [0m [1;36m(ID=SCOREBOARD)[0m [1;34m[time = 885][0m  PRESETN = 1 | PSELX = 1 | PWRITE = 1 | PENABLE = 1 | PSTRB = 0 | PREADY = 1 | PRDATA = 3987945672 | PSLVERR = 0 
# [1;32m[INFO] [0m [1;36m(ID=SCOREBOARD)[0m [1;34m[time = 885][0m data strored at slave[  0] =  969860660 
# [1;32m[INFO] [0m [1;36m(ID=SCOREBOARD)[0m [1;34m[time = 935][0m READ TRANSFER
# [1;32m[INFO] [0m [1;36m(ID=SCOREBOARD)[0m [1;34m[time = 935][0m  PRESETN = 1 | PSELX = 1 | PWRITE = 0 | PENABLE = 1 | PSTRB = 0 | PREADY = 1 | PRDATA = 969860660 | PSLVERR = 0 
# [1;32m[INFO] [0m [1;36m(ID=SCOREBOARD)[0m [1;34m[time = 935][0m data stored at slave[  0] =  969860660 
# [1;32m[INFO] [0m [1;36m(ID=SCOREBOARD)[0m [1;34m[time = 935][0m ---------------------------------------
# [1;32m[INFO] [0m [1;36m(ID=SCOREBOARD)[0m [1;34m[time = 935][0m ----           TEST PASS           ----
# [1;32m[INFO] [0m [1;36m(ID=SCOREBOARD)[0m [1;34m[time = 935][0m ---------------------------------------
# [1;32m[INFO] [0m [1;36m(ID=SCOREBOARD)[0m [1;34m[time = 985][0m WRITE TRANSFER
# [1;32m[INFO] [0m [1;36m(ID=SCOREBOARD)[0m [1;34m[time = 985][0m  PRESETN = 1 | PSELX = 1 | PWRITE = 1 | PENABLE = 1 | PSTRB = 0 | PREADY = 1 | PRDATA = 969860660 | PSLVERR = 0 
# [1;32m[INFO] [0m [1;36m(ID=SCOREBOARD)[0m [1;34m[time = 985][0m data strored at slave[ 36] = 1065242217 
# [1;32m[INFO] [0m [1;36m(ID=SCOREBOARD)[0m [1;34m[time = 1015][0m PRESETN = 0 | PSELX = 1 | PREADY = 0 | PRDATA = 0 | PSLVERR = 0 
# [1;32m[INFO] [0m [1;36m(ID=SCOREBOARD)[0m [1;34m[time = 1015][0m ---------------------------------------
# [1;32m[INFO] [0m [1;36m(ID=SCOREBOARD)[0m [1;34m[time = 1015][0m ----           TEST PASS           ----
# [1;32m[INFO] [0m [1;36m(ID=SCOREBOARD)[0m [1;34m[time = 1015][0m ---------------------------------------
# [1;32m[INFO] [0m [1;36m(ID=SCOREBOARD)[0m [1;34m[time = 1075][0m WRITE TRANSFER
# [1;32m[INFO] [0m [1;36m(ID=SCOREBOARD)[0m [1;34m[time = 1075][0m  PRESETN = 1 | PSELX = 1 | PWRITE = 1 | PENABLE = 1 | PSTRB = 0 | PREADY = 1 | PRDATA = 0 | PSLVERR = 0 
# [1;32m[INFO] [0m [1;36m(ID=SCOREBOARD)[0m [1;34m[time = 1075][0m data strored at slave[ 45] =  687726023 
# [1;32m[INFO] [0m [1;36m(ID=SCOREBOARD)[0m [1;34m[time = 1105][0m PRESETN = 0 | PSELX = 0 | PREADY = 0 | PRDATA = 0 | PSLVERR = 0 
# [1;32m[INFO] [0m [1;36m(ID=SCOREBOARD)[0m [1;34m[time = 1105][0m ---------------------------------------
# [1;32m[INFO] [0m [1;36m(ID=SCOREBOARD)[0m [1;34m[time = 1105][0m ----           TEST PASS           ----
# [1;32m[INFO] [0m [1;36m(ID=SCOREBOARD)[0m [1;34m[time = 1105][0m ---------------------------------------
# [1;32m[INFO] [0m [1;36m(ID=SCOREBOARD)[0m [1;34m[time = 1165][0m READ TRANSFER
# [1;32m[INFO] [0m [1;36m(ID=SCOREBOARD)[0m [1;34m[time = 1165][0m  PRESETN = 1 | PSELX = 1 | PWRITE = 0 | PENABLE = 1 | PSTRB = 0 | PREADY = 1 | PRDATA = 0 | PSLVERR = 0 
# [1;32m[INFO] [0m [1;36m(ID=SCOREBOARD)[0m [1;34m[time = 1165][0m data stored at slave[ 45] =          0 
# [1;32m[INFO] [0m [1;36m(ID=SCOREBOARD)[0m [1;34m[time = 1165][0m ---------------------------------------
# [1;32m[INFO] [0m [1;36m(ID=SCOREBOARD)[0m [1;34m[time = 1165][0m ----           TEST FAIL           ----
# [1;32m[INFO] [0m [1;36m(ID=SCOREBOARD)[0m [1;34m[time = 1165][0m ---------------------------------------
# [1;32m[INFO] [0m [1;36m(ID=SCOREBOARD)[0m [1;34m[time = 1195][0m PRESETN = 0 | PSELX = 1 | PREADY = 0 | PRDATA = 0 | PSLVERR = 0 
# [1;32m[INFO] [0m [1;36m(ID=SCOREBOARD)[0m [1;34m[time = 1195][0m ---------------------------------------
# [1;32m[INFO] [0m [1;36m(ID=SCOREBOARD)[0m [1;34m[time = 1195][0m ----           TEST PASS           ----
# [1;32m[INFO] [0m [1;36m(ID=SCOREBOARD)[0m [1;34m[time = 1195][0m ---------------------------------------
# [1;32m[INFO] [0m [1;36m(ID=SCOREBOARD)[0m [1;34m[time = 1255][0m READ TRANSFER
# [1;32m[INFO] [0m [1;36m(ID=SCOREBOARD)[0m [1;34m[time = 1255][0m  PRESETN = 1 | PSELX = 1 | PWRITE = 0 | PENABLE = 1 | PSTRB = 0 | PREADY = 1 | PRDATA = 0 | PSLVERR = 0 
# [1;32m[INFO] [0m [1;36m(ID=SCOREBOARD)[0m [1;34m[time = 1255][0m data stored at slave[ 36] =          0 
# [1;32m[INFO] [0m [1;36m(ID=SCOREBOARD)[0m [1;34m[time = 1255][0m ---------------------------------------
# [1;32m[INFO] [0m [1;36m(ID=SCOREBOARD)[0m [1;34m[time = 1255][0m ----           TEST FAIL           ----
# [1;32m[INFO] [0m [1;36m(ID=SCOREBOARD)[0m [1;34m[time = 1255][0m ---------------------------------------
# ** Error: SLAVE ERROR NOT ASSERTED FOR OUT OF RANGE ADDRESS!
#    Time: 1295 ns Started: 1285 ns  Scope: top.vif.ASSERT File: apb_master_assertions.sv Line: 173 Expr: PSLVERR
# [1;32m[INFO] [0m [1;36m(ID=SCOREBOARD)[0m [1;34m[time = 1305][0m WRITE TRANSFER
# [1;32m[INFO] [0m [1;36m(ID=SCOREBOARD)[0m [1;34m[time = 1305][0m  PRESETN = 1 | PSELX = 1 | PWRITE = 1 | PENABLE = 1 | PSTRB = 0 | PREADY = 1 | PRDATA = 0 | PSLVERR = 1 
# [1;32m[INFO] [0m [1;36m(ID=SCOREBOARD)[0m [1;34m[time = 1305][0m data strored at slave[233] = 1241633816 
# [1;32m[INFO] [0m [1;36m(ID=SCOREBOARD)[0m [1;34m[time = 1305][0m SLAVE ERROR CHECK
# [1;32m[INFO] [0m [1;36m(ID=SCOREBOARD)[0m [1;34m[time = 1305][0m  PRESETN = 1 | PSELX = 1 | PWRITE = 1 | PENABLE = 1 | PREADY = 1 | PRDATA = 0 | PSLVERR = 1 
# [1;32m[INFO] [0m [1;36m(ID=SCOREBOARD)[0m [1;34m[time = 1305][0m data stored at slave[233] =          0 
# [1;32m[INFO] [0m [1;36m(ID=SCOREBOARD)[0m [1;34m[time = 1305][0m ---------------------------------------
# [1;32m[INFO] [0m [1;36m(ID=SCOREBOARD)[0m [1;34m[time = 1305][0m ----           TEST PASS           ----
# [1;32m[INFO] [0m [1;36m(ID=SCOREBOARD)[0m [1;34m[time = 1305][0m ---------------------------------------
# ** Error: SLAVE ERROR NOT ASSERTED FOR OUT OF RANGE ADDRESS!
#    Time: 1305 ns Started: 1295 ns  Scope: top.vif.ASSERT File: apb_master_assertions.sv Line: 173 Expr: PSLVERR
# ** Error: SLAVE ERROR NOT ASSERTED FOR OUT OF RANGE ADDRESS!
#    Time: 1325 ns Started: 1315 ns  Scope: top.vif.ASSERT File: apb_master_assertions.sv Line: 173 Expr: PSLVERR
# [1;32m[INFO] [0m [1;36m(ID=SCOREBOARD)[0m [1;34m[time = 1335][0m SLAVE ERROR CHECK
# [1;32m[INFO] [0m [1;36m(ID=SCOREBOARD)[0m [1;34m[time = 1335][0m  PRESETN = 1 | PSELX = 1 | PWRITE = 1 | PENABLE = 1 | PREADY = 0 | PRDATA = 0 | PSLVERR = 0 
# [1;32m[INFO] [0m [1;36m(ID=SCOREBOARD)[0m [1;34m[time = 1335][0m data stored at slave[233] =          0 
# [1;32m[INFO] [0m [1;36m(ID=SCOREBOARD)[0m [1;34m[time = 1335][0m ---------------------------------------
# [1;32m[INFO] [0m [1;36m(ID=SCOREBOARD)[0m [1;34m[time = 1335][0m ----           TEST FAIL           ----
# [1;32m[INFO] [0m [1;36m(ID=SCOREBOARD)[0m [1;34m[time = 1335][0m ---------------------------------------
# ** Error: SLAVE ERROR NOT ASSERTED FOR OUT OF RANGE ADDRESS!
#    Time: 1335 ns Started: 1325 ns  Scope: top.vif.ASSERT File: apb_master_assertions.sv Line: 173 Expr: PSLVERR
# ** Error: SLAVE ERROR NOT ASSERTED FOR OUT OF RANGE ADDRESS!
#    Time: 1345 ns Started: 1335 ns  Scope: top.vif.ASSERT File: apb_master_assertions.sv Line: 173 Expr: PSLVERR
# [1;32m[INFO] [0m [1;36m(ID=SCOREBOARD)[0m [1;34m[time = 1355][0m READ TRANSFER
# [1;32m[INFO] [0m [1;36m(ID=SCOREBOARD)[0m [1;34m[time = 1355][0m  PRESETN = 1 | PSELX = 1 | PWRITE = 0 | PENABLE = 1 | PSTRB = 0 | PREADY = 1 | PRDATA = 0 | PSLVERR = 1 
# [1;32m[INFO] [0m [1;36m(ID=SCOREBOARD)[0m [1;34m[time = 1355][0m data stored at slave[246] =          0 
# [1;32m[INFO] [0m [1;36m(ID=SCOREBOARD)[0m [1;34m[time = 1355][0m ---------------------------------------
# [1;32m[INFO] [0m [1;36m(ID=SCOREBOARD)[0m [1;34m[time = 1355][0m ----           TEST FAIL           ----
# [1;32m[INFO] [0m [1;36m(ID=SCOREBOARD)[0m [1;34m[time = 1355][0m ---------------------------------------
# [1;32m[INFO] [0m [1;36m(ID=SCOREBOARD)[0m [1;34m[time = 1355][0m SLAVE ERROR CHECK
# [1;32m[INFO] [0m [1;36m(ID=SCOREBOARD)[0m [1;34m[time = 1355][0m  PRESETN = 1 | PSELX = 1 | PWRITE = 0 | PENABLE = 1 | PREADY = 1 | PRDATA = 0 | PSLVERR = 1 
# [1;32m[INFO] [0m [1;36m(ID=SCOREBOARD)[0m [1;34m[time = 1355][0m data stored at slave[246] =          0 
# [1;32m[INFO] [0m [1;36m(ID=SCOREBOARD)[0m [1;34m[time = 1355][0m ---------------------------------------
# [1;32m[INFO] [0m [1;36m(ID=SCOREBOARD)[0m [1;34m[time = 1355][0m ----           TEST PASS           ----
# [1;32m[INFO] [0m [1;36m(ID=SCOREBOARD)[0m [1;34m[time = 1355][0m ---------------------------------------
# ** Error: SLAVE ERROR NOT ASSERTED FOR OUT OF RANGE ADDRESS!
#    Time: 1355 ns Started: 1345 ns  Scope: top.vif.ASSERT File: apb_master_assertions.sv Line: 173 Expr: PSLVERR
# ** Error: SLAVE ERROR NOT ASSERTED FOR OUT OF RANGE ADDRESS!
#    Time: 1375 ns Started: 1365 ns  Scope: top.vif.ASSERT File: apb_master_assertions.sv Line: 173 Expr: PSLVERR
# [1;32m[INFO] [0m [1;36m(ID=SCOREBOARD)[0m [1;34m[time = 1385][0m SLAVE ERROR CHECK
# [1;32m[INFO] [0m [1;36m(ID=SCOREBOARD)[0m [1;34m[time = 1385][0m  PRESETN = 1 | PSELX = 1 | PWRITE = 0 | PENABLE = 1 | PREADY = 0 | PRDATA = 0 | PSLVERR = 0 
# [1;32m[INFO] [0m [1;36m(ID=SCOREBOARD)[0m [1;34m[time = 1385][0m data stored at slave[246] =          0 
# [1;32m[INFO] [0m [1;36m(ID=SCOREBOARD)[0m [1;34m[time = 1385][0m ---------------------------------------
# [1;32m[INFO] [0m [1;36m(ID=SCOREBOARD)[0m [1;34m[time = 1385][0m ----           TEST FAIL           ----
# [1;32m[INFO] [0m [1;36m(ID=SCOREBOARD)[0m [1;34m[time = 1385][0m ---------------------------------------
# ** Error: SLAVE ERROR NOT ASSERTED FOR OUT OF RANGE ADDRESS!
#    Time: 1385 ns Started: 1375 ns  Scope: top.vif.ASSERT File: apb_master_assertions.sv Line: 173 Expr: PSLVERR
# [1;32m[INFO] [0m [1;36m(ID=SCOREBOARD)[0m [1;34m[time = 1405][0m WRITE TRANSFER
# [1;32m[INFO] [0m [1;36m(ID=SCOREBOARD)[0m [1;34m[time = 1405][0m  PRESETN = 1 | PSELX = 1 | PWRITE = 1 | PENABLE = 1 | PSTRB = 0 | PREADY = 1 | PRDATA = 0 | PSLVERR = 0 
# [1;32m[INFO] [0m [1;36m(ID=SCOREBOARD)[0m [1;34m[time = 1405][0m data strored at slave[185] = 1725853359 
# [1;32m[INFO] [0m [1;36m(ID=SCOREBOARD)[0m [1;34m[time = 1455][0m WRITE TRANSFER
# [1;32m[INFO] [0m [1;36m(ID=SCOREBOARD)[0m [1;34m[time = 1455][0m  PRESETN = 1 | PSELX = 1 | PWRITE = 1 | PENABLE = 1 | PSTRB = 1 | PREADY = 1 | PRDATA = 0 | PSLVERR = 0 
# [1;32m[INFO] [0m [1;36m(ID=SCOREBOARD)[0m [1;34m[time = 1455][0m data strored at slave[185] = 4270950084 
# [1;32m[INFO] [0m [1;36m(ID=SCOREBOARD)[0m [1;34m[time = 1455][0m  PSTRB WRITE: ADDR = 185 | PSTRB = 1 | OLD_DATA = 1725853359 | NEW_DATA = 1725853380 
# [1;32m[INFO] [0m [1;36m(ID=SCOREBOARD)[0m [1;34m[time = 1505][0m READ TRANSFER
# [1;32m[INFO] [0m [1;36m(ID=SCOREBOARD)[0m [1;34m[time = 1505][0m  PRESETN = 1 | PSELX = 1 | PWRITE = 0 | PENABLE = 1 | PSTRB = 0 | PREADY = 1 | PRDATA = 1725853380 | PSLVERR = 0 
# [1;32m[INFO] [0m [1;36m(ID=SCOREBOARD)[0m [1;34m[time = 1505][0m data stored at slave[185] = 1725853380 
# [1;32m[INFO] [0m [1;36m(ID=SCOREBOARD)[0m [1;34m[time = 1505][0m ---------------------------------------
# [1;32m[INFO] [0m [1;36m(ID=SCOREBOARD)[0m [1;34m[time = 1505][0m ----           TEST PASS           ----
# [1;32m[INFO] [0m [1;36m(ID=SCOREBOARD)[0m [1;34m[time = 1505][0m ---------------------------------------
# [1;32m[INFO] [0m [1;36m(ID=SCOREBOARD)[0m [1;34m[time = 1555][0m WRITE TRANSFER
# [1;32m[INFO] [0m [1;36m(ID=SCOREBOARD)[0m [1;34m[time = 1555][0m  PRESETN = 1 | PSELX = 1 | PWRITE = 1 | PENABLE = 1 | PSTRB = 0 | PREADY = 1 | PRDATA = 1725853380 | PSLVERR = 0 
# [1;32m[INFO] [0m [1;36m(ID=SCOREBOARD)[0m [1;34m[time = 1555][0m data strored at slave[ 16] = 3401238340 
# [1;32m[INFO] [0m [1;36m(ID=SCOREBOARD)[0m [1;34m[time = 1605][0m WRITE TRANSFER
# [1;32m[INFO] [0m [1;36m(ID=SCOREBOARD)[0m [1;34m[time = 1605][0m  PRESETN = 1 | PSELX = 1 | PWRITE = 1 | PENABLE = 1 | PSTRB = 2 | PREADY = 1 | PRDATA = 1725853380 | PSLVERR = 0 
# [1;32m[INFO] [0m [1;36m(ID=SCOREBOARD)[0m [1;34m[time = 1605][0m data strored at slave[ 16] = 2953526365 
# [1;32m[INFO] [0m [1;36m(ID=SCOREBOARD)[0m [1;34m[time = 1605][0m  PSTRB WRITE: ADDR = 16 | PSTRB = 2 | OLD_DATA = 3401238340 | NEW_DATA = 3401202756 
# [1;32m[INFO] [0m [1;36m(ID=SCOREBOARD)[0m [1;34m[time = 1655][0m READ TRANSFER
# [1;32m[INFO] [0m [1;36m(ID=SCOREBOARD)[0m [1;34m[time = 1655][0m  PRESETN = 1 | PSELX = 1 | PWRITE = 0 | PENABLE = 1 | PSTRB = 0 | PREADY = 1 | PRDATA = 3401202756 | PSLVERR = 0 
# [1;32m[INFO] [0m [1;36m(ID=SCOREBOARD)[0m [1;34m[time = 1655][0m data stored at slave[ 16] = 3401202756 
# [1;32m[INFO] [0m [1;36m(ID=SCOREBOARD)[0m [1;34m[time = 1655][0m ---------------------------------------
# [1;32m[INFO] [0m [1;36m(ID=SCOREBOARD)[0m [1;34m[time = 1655][0m ----           TEST PASS           ----
# [1;32m[INFO] [0m [1;36m(ID=SCOREBOARD)[0m [1;34m[time = 1655][0m ---------------------------------------
# [1;32m[INFO] [0m [1;36m(ID=SCOREBOARD)[0m [1;34m[time = 1705][0m WRITE TRANSFER
# [1;32m[INFO] [0m [1;36m(ID=SCOREBOARD)[0m [1;34m[time = 1705][0m  PRESETN = 1 | PSELX = 1 | PWRITE = 1 | PENABLE = 1 | PSTRB = 0 | PREADY = 1 | PRDATA = 3401202756 | PSLVERR = 0 
# [1;32m[INFO] [0m [1;36m(ID=SCOREBOARD)[0m [1;34m[time = 1705][0m data strored at slave[182] =  151815920 
# [1;32m[INFO] [0m [1;36m(ID=SCOREBOARD)[0m [1;34m[time = 1755][0m WRITE TRANSFER
# [1;32m[INFO] [0m [1;36m(ID=SCOREBOARD)[0m [1;34m[time = 1755][0m  PRESETN = 1 | PSELX = 1 | PWRITE = 1 | PENABLE = 1 | PSTRB = 3 | PREADY = 1 | PRDATA = 3401202756 | PSLVERR = 0 
# [1;32m[INFO] [0m [1;36m(ID=SCOREBOARD)[0m [1;34m[time = 1755][0m data strored at slave[182] = 4155782200 
# [1;32m[INFO] [0m [1;36m(ID=SCOREBOARD)[0m [1;34m[time = 1755][0m  PSTRB WRITE: ADDR = 182 | PSTRB = 3 | OLD_DATA = 151815920 | NEW_DATA = 151794744 
# [1;32m[INFO] [0m [1;36m(ID=SCOREBOARD)[0m [1;34m[time = 1805][0m READ TRANSFER
# [1;32m[INFO] [0m [1;36m(ID=SCOREBOARD)[0m [1;34m[time = 1805][0m  PRESETN = 1 | PSELX = 1 | PWRITE = 0 | PENABLE = 1 | PSTRB = 0 | PREADY = 1 | PRDATA = 151794744 | PSLVERR = 0 
# [1;32m[INFO] [0m [1;36m(ID=SCOREBOARD)[0m [1;34m[time = 1805][0m data stored at slave[182] =  151794744 
# [1;32m[INFO] [0m [1;36m(ID=SCOREBOARD)[0m [1;34m[time = 1805][0m ---------------------------------------
# [1;32m[INFO] [0m [1;36m(ID=SCOREBOARD)[0m [1;34m[time = 1805][0m ----           TEST PASS           ----
# [1;32m[INFO] [0m [1;36m(ID=SCOREBOARD)[0m [1;34m[time = 1805][0m ---------------------------------------
# [1;32m[INFO] [0m [1;36m(ID=SCOREBOARD)[0m [1;34m[time = 1855][0m WRITE TRANSFER
# [1;32m[INFO] [0m [1;36m(ID=SCOREBOARD)[0m [1;34m[time = 1855][0m  PRESETN = 1 | PSELX = 1 | PWRITE = 1 | PENABLE = 1 | PSTRB = 0 | PREADY = 1 | PRDATA = 151794744 | PSLVERR = 0 
# [1;32m[INFO] [0m [1;36m(ID=SCOREBOARD)[0m [1;34m[time = 1855][0m data strored at slave[  9] = 2872313202 
# [1;32m[INFO] [0m [1;36m(ID=SCOREBOARD)[0m [1;34m[time = 1905][0m WRITE TRANSFER
# [1;32m[INFO] [0m [1;36m(ID=SCOREBOARD)[0m [1;34m[time = 1905][0m  PRESETN = 1 | PSELX = 1 | PWRITE = 1 | PENABLE = 1 | PSTRB = 4 | PREADY = 1 | PRDATA = 151794744 | PSLVERR = 0 
# [1;32m[INFO] [0m [1;36m(ID=SCOREBOARD)[0m [1;34m[time = 1905][0m data strored at slave[  9] = 2948930666 
# [1;32m[INFO] [0m [1;36m(ID=SCOREBOARD)[0m [1;34m[time = 1905][0m  PSTRB WRITE: ADDR = 9 | PSTRB = 4 | OLD_DATA = 2872313202 | NEW_DATA = 2881815922 
# [1;32m[INFO] [0m [1;36m(ID=SCOREBOARD)[0m [1;34m[time = 1955][0m READ TRANSFER
# [1;32m[INFO] [0m [1;36m(ID=SCOREBOARD)[0m [1;34m[time = 1955][0m  PRESETN = 1 | PSELX = 1 | PWRITE = 0 | PENABLE = 1 | PSTRB = 0 | PREADY = 1 | PRDATA = 2881815922 | PSLVERR = 0 
# [1;32m[INFO] [0m [1;36m(ID=SCOREBOARD)[0m [1;34m[time = 1955][0m data stored at slave[  9] = 2881815922 
# [1;32m[INFO] [0m [1;36m(ID=SCOREBOARD)[0m [1;34m[time = 1955][0m ---------------------------------------
# [1;32m[INFO] [0m [1;36m(ID=SCOREBOARD)[0m [1;34m[time = 1955][0m ----           TEST PASS           ----
# [1;32m[INFO] [0m [1;36m(ID=SCOREBOARD)[0m [1;34m[time = 1955][0m ---------------------------------------
# [1;32m[INFO] [0m [1;36m(ID=SCOREBOARD)[0m [1;34m[time = 2005][0m WRITE TRANSFER
# [1;32m[INFO] [0m [1;36m(ID=SCOREBOARD)[0m [1;34m[time = 2005][0m  PRESETN = 1 | PSELX = 1 | PWRITE = 1 | PENABLE = 1 | PSTRB = 0 | PREADY = 1 | PRDATA = 2881815922 | PSLVERR = 0 
# [1;32m[INFO] [0m [1;36m(ID=SCOREBOARD)[0m [1;34m[time = 2005][0m data strored at slave[ 86] = 1533019268 
# [1;32m[INFO] [0m [1;36m(ID=SCOREBOARD)[0m [1;34m[time = 2055][0m WRITE TRANSFER
# [1;32m[INFO] [0m [1;36m(ID=SCOREBOARD)[0m [1;34m[time = 2055][0m  PRESETN = 1 | PSELX = 1 | PWRITE = 1 | PENABLE = 1 | PSTRB = 5 | PREADY = 1 | PRDATA = 2881815922 | PSLVERR = 0 
# [1;32m[INFO] [0m [1;36m(ID=SCOREBOARD)[0m [1;34m[time = 2055][0m data strored at slave[ 86] =  815286309 
# [1;32m[INFO] [0m [1;36m(ID=SCOREBOARD)[0m [1;34m[time = 2055][0m  PSTRB WRITE: ADDR = 86 | PSTRB = 5 | OLD_DATA = 1533019268 | NEW_DATA = 1536689189 
# [1;32m[INFO] [0m [1;36m(ID=SCOREBOARD)[0m [1;34m[time = 2105][0m READ TRANSFER
# [1;32m[INFO] [0m [1;36m(ID=SCOREBOARD)[0m [1;34m[time = 2105][0m  PRESETN = 1 | PSELX = 1 | PWRITE = 0 | PENABLE = 1 | PSTRB = 0 | PREADY = 1 | PRDATA = 1536689189 | PSLVERR = 0 
# [1;32m[INFO] [0m [1;36m(ID=SCOREBOARD)[0m [1;34m[time = 2105][0m data stored at slave[ 86] = 1536689189 
# [1;32m[INFO] [0m [1;36m(ID=SCOREBOARD)[0m [1;34m[time = 2105][0m ---------------------------------------
# [1;32m[INFO] [0m [1;36m(ID=SCOREBOARD)[0m [1;34m[time = 2105][0m ----           TEST PASS           ----
# [1;32m[INFO] [0m [1;36m(ID=SCOREBOARD)[0m [1;34m[time = 2105][0m ---------------------------------------
# [1;32m[INFO] [0m [1;36m(ID=SCOREBOARD)[0m [1;34m[time = 2155][0m WRITE TRANSFER
# [1;32m[INFO] [0m [1;36m(ID=SCOREBOARD)[0m [1;34m[time = 2155][0m  PRESETN = 1 | PSELX = 1 | PWRITE = 1 | PENABLE = 1 | PSTRB = 0 | PREADY = 1 | PRDATA = 1536689189 | PSLVERR = 0 
# [1;32m[INFO] [0m [1;36m(ID=SCOREBOARD)[0m [1;34m[time = 2155][0m data strored at slave[177] = 1906840191 
# [1;32m[INFO] [0m [1;36m(ID=SCOREBOARD)[0m [1;34m[time = 2205][0m WRITE TRANSFER
# [1;32m[INFO] [0m [1;36m(ID=SCOREBOARD)[0m [1;34m[time = 2205][0m  PRESETN = 1 | PSELX = 1 | PWRITE = 1 | PENABLE = 1 | PSTRB = 6 | PREADY = 1 | PRDATA = 1536689189 | PSLVERR = 0 
# [1;32m[INFO] [0m [1;36m(ID=SCOREBOARD)[0m [1;34m[time = 2205][0m data strored at slave[177] =    1510113 
# [1;32m[INFO] [0m [1;36m(ID=SCOREBOARD)[0m [1;34m[time = 2205][0m  PSTRB WRITE: ADDR = 177 | PSTRB = 6 | OLD_DATA = 1906840191 | NEW_DATA = 1897335423 
# [1;32m[INFO] [0m [1;36m(ID=SCOREBOARD)[0m [1;34m[time = 2255][0m READ TRANSFER
# [1;32m[INFO] [0m [1;36m(ID=SCOREBOARD)[0m [1;34m[time = 2255][0m  PRESETN = 1 | PSELX = 1 | PWRITE = 0 | PENABLE = 1 | PSTRB = 0 | PREADY = 1 | PRDATA = 1897335423 | PSLVERR = 0 
# [1;32m[INFO] [0m [1;36m(ID=SCOREBOARD)[0m [1;34m[time = 2255][0m data stored at slave[177] = 1897335423 
# [1;32m[INFO] [0m [1;36m(ID=SCOREBOARD)[0m [1;34m[time = 2255][0m ---------------------------------------
# [1;32m[INFO] [0m [1;36m(ID=SCOREBOARD)[0m [1;34m[time = 2255][0m ----           TEST PASS           ----
# [1;32m[INFO] [0m [1;36m(ID=SCOREBOARD)[0m [1;34m[time = 2255][0m ---------------------------------------
# [1;32m[INFO] [0m [1;36m(ID=SCOREBOARD)[0m [1;34m[time = 2305][0m WRITE TRANSFER
# [1;32m[INFO] [0m [1;36m(ID=SCOREBOARD)[0m [1;34m[time = 2305][0m  PRESETN = 1 | PSELX = 1 | PWRITE = 1 | PENABLE = 1 | PSTRB = 0 | PREADY = 1 | PRDATA = 1897335423 | PSLVERR = 0 
# [1;32m[INFO] [0m [1;36m(ID=SCOREBOARD)[0m [1;34m[time = 2305][0m data strored at slave[156] =  375054418 
# [1;32m[INFO] [0m [1;36m(ID=SCOREBOARD)[0m [1;34m[time = 2355][0m WRITE TRANSFER
# [1;32m[INFO] [0m [1;36m(ID=SCOREBOARD)[0m [1;34m[time = 2355][0m  PRESETN = 1 | PSELX = 1 | PWRITE = 1 | PENABLE = 1 | PSTRB = 7 | PREADY = 1 | PRDATA = 1897335423 | PSLVERR = 0 
# [1;32m[INFO] [0m [1;36m(ID=SCOREBOARD)[0m [1;34m[time = 2355][0m data strored at slave[156] =  111291838 
# [1;32m[INFO] [0m [1;36m(ID=SCOREBOARD)[0m [1;34m[time = 2355][0m  PSTRB WRITE: ADDR = 156 | PSTRB = 7 | OLD_DATA = 375054418 | NEW_DATA = 379727294 
# [1;32m[INFO] [0m [1;36m(ID=SCOREBOARD)[0m [1;34m[time = 2405][0m READ TRANSFER
# [1;32m[INFO] [0m [1;36m(ID=SCOREBOARD)[0m [1;34m[time = 2405][0m  PRESETN = 1 | PSELX = 1 | PWRITE = 0 | PENABLE = 1 | PSTRB = 0 | PREADY = 1 | PRDATA = 379727294 | PSLVERR = 0 
# [1;32m[INFO] [0m [1;36m(ID=SCOREBOARD)[0m [1;34m[time = 2405][0m data stored at slave[156] =  379727294 
# [1;32m[INFO] [0m [1;36m(ID=SCOREBOARD)[0m [1;34m[time = 2405][0m ---------------------------------------
# [1;32m[INFO] [0m [1;36m(ID=SCOREBOARD)[0m [1;34m[time = 2405][0m ----           TEST PASS           ----
# [1;32m[INFO] [0m [1;36m(ID=SCOREBOARD)[0m [1;34m[time = 2405][0m ---------------------------------------
# [1;32m[INFO] [0m [1;36m(ID=SCOREBOARD)[0m [1;34m[time = 2455][0m WRITE TRANSFER
# [1;32m[INFO] [0m [1;36m(ID=SCOREBOARD)[0m [1;34m[time = 2455][0m  PRESETN = 1 | PSELX = 1 | PWRITE = 1 | PENABLE = 1 | PSTRB = 0 | PREADY = 1 | PRDATA = 379727294 | PSLVERR = 0 
# [1;32m[INFO] [0m [1;36m(ID=SCOREBOARD)[0m [1;34m[time = 2455][0m data strored at slave[162] = 3707229610 
# [1;32m[INFO] [0m [1;36m(ID=SCOREBOARD)[0m [1;34m[time = 2505][0m WRITE TRANSFER
# [1;32m[INFO] [0m [1;36m(ID=SCOREBOARD)[0m [1;34m[time = 2505][0m  PRESETN = 1 | PSELX = 1 | PWRITE = 1 | PENABLE = 1 | PSTRB = 8 | PREADY = 1 | PRDATA = 379727294 | PSLVERR = 0 
# [1;32m[INFO] [0m [1;36m(ID=SCOREBOARD)[0m [1;34m[time = 2505][0m data strored at slave[162] = 2389887561 
# [1;32m[INFO] [0m [1;36m(ID=SCOREBOARD)[0m [1;34m[time = 2505][0m  PSTRB WRITE: ADDR = 162 | PSTRB = 8 | OLD_DATA = 3707229610 | NEW_DATA = 2398606762 
# [1;32m[INFO] [0m [1;36m(ID=SCOREBOARD)[0m [1;34m[time = 2555][0m READ TRANSFER
# [1;32m[INFO] [0m [1;36m(ID=SCOREBOARD)[0m [1;34m[time = 2555][0m  PRESETN = 1 | PSELX = 1 | PWRITE = 0 | PENABLE = 1 | PSTRB = 0 | PREADY = 1 | PRDATA = 2398606762 | PSLVERR = 0 
# [1;32m[INFO] [0m [1;36m(ID=SCOREBOARD)[0m [1;34m[time = 2555][0m data stored at slave[162] = 2398606762 
# [1;32m[INFO] [0m [1;36m(ID=SCOREBOARD)[0m [1;34m[time = 2555][0m ---------------------------------------
# [1;32m[INFO] [0m [1;36m(ID=SCOREBOARD)[0m [1;34m[time = 2555][0m ----           TEST PASS           ----
# [1;32m[INFO] [0m [1;36m(ID=SCOREBOARD)[0m [1;34m[time = 2555][0m ---------------------------------------
# [1;32m[INFO] [0m [1;36m(ID=SCOREBOARD)[0m [1;34m[time = 2605][0m WRITE TRANSFER
# [1;32m[INFO] [0m [1;36m(ID=SCOREBOARD)[0m [1;34m[time = 2605][0m  PRESETN = 1 | PSELX = 1 | PWRITE = 1 | PENABLE = 1 | PSTRB = 0 | PREADY = 1 | PRDATA = 2398606762 | PSLVERR = 0 
# [1;32m[INFO] [0m [1;36m(ID=SCOREBOARD)[0m [1;34m[time = 2605][0m data strored at slave[162] = 1969065529 
# [1;32m[INFO] [0m [1;36m(ID=SCOREBOARD)[0m [1;34m[time = 2655][0m WRITE TRANSFER
# [1;32m[INFO] [0m [1;36m(ID=SCOREBOARD)[0m [1;34m[time = 2655][0m  PRESETN = 1 | PSELX = 1 | PWRITE = 1 | PENABLE = 1 | PSTRB = 9 | PREADY = 1 | PRDATA = 2398606762 | PSLVERR = 0 
# [1;32m[INFO] [0m [1;36m(ID=SCOREBOARD)[0m [1;34m[time = 2655][0m data strored at slave[162] = 2419173600 
# [1;32m[INFO] [0m [1;36m(ID=SCOREBOARD)[0m [1;34m[time = 2655][0m  PSTRB WRITE: ADDR = 162 | PSTRB = 9 | OLD_DATA = 1969065529 | NEW_DATA = 2422050528 
# [1;32m[INFO] [0m [1;36m(ID=SCOREBOARD)[0m [1;34m[time = 2705][0m READ TRANSFER
# [1;32m[INFO] [0m [1;36m(ID=SCOREBOARD)[0m [1;34m[time = 2705][0m  PRESETN = 1 | PSELX = 1 | PWRITE = 0 | PENABLE = 1 | PSTRB = 0 | PREADY = 1 | PRDATA = 2422050528 | PSLVERR = 0 
# [1;32m[INFO] [0m [1;36m(ID=SCOREBOARD)[0m [1;34m[time = 2705][0m data stored at slave[162] = 2422050528 
# [1;32m[INFO] [0m [1;36m(ID=SCOREBOARD)[0m [1;34m[time = 2705][0m ---------------------------------------
# [1;32m[INFO] [0m [1;36m(ID=SCOREBOARD)[0m [1;34m[time = 2705][0m ----           TEST PASS           ----
# [1;32m[INFO] [0m [1;36m(ID=SCOREBOARD)[0m [1;34m[time = 2705][0m ---------------------------------------
# [1;32m[INFO] [0m [1;36m(ID=SCOREBOARD)[0m [1;34m[time = 2755][0m WRITE TRANSFER
# [1;32m[INFO] [0m [1;36m(ID=SCOREBOARD)[0m [1;34m[time = 2755][0m  PRESETN = 1 | PSELX = 1 | PWRITE = 1 | PENABLE = 1 | PSTRB = 0 | PREADY = 1 | PRDATA = 2422050528 | PSLVERR = 0 
# [1;32m[INFO] [0m [1;36m(ID=SCOREBOARD)[0m [1;34m[time = 2755][0m data strored at slave[ 58] = 4156894499 
# [1;32m[INFO] [0m [1;36m(ID=SCOREBOARD)[0m [1;34m[time = 2805][0m WRITE TRANSFER
# [1;32m[INFO] [0m [1;36m(ID=SCOREBOARD)[0m [1;34m[time = 2805][0m  PRESETN = 1 | PSELX = 1 | PWRITE = 1 | PENABLE = 1 | PSTRB = 10 | PREADY = 1 | PRDATA = 2422050528 | PSLVERR = 0 
# [1;32m[INFO] [0m [1;36m(ID=SCOREBOARD)[0m [1;34m[time = 2805][0m data strored at slave[ 58] = 1833715917 
# [1;32m[INFO] [0m [1;36m(ID=SCOREBOARD)[0m [1;34m[time = 2805][0m  PSTRB WRITE: ADDR = 58 | PSTRB = 10 | OLD_DATA = 4156894499 | NEW_DATA = 1841645603 
# [1;32m[INFO] [0m [1;36m(ID=SCOREBOARD)[0m [1;34m[time = 2855][0m READ TRANSFER
# [1;32m[INFO] [0m [1;36m(ID=SCOREBOARD)[0m [1;34m[time = 2855][0m  PRESETN = 1 | PSELX = 1 | PWRITE = 0 | PENABLE = 1 | PSTRB = 0 | PREADY = 1 | PRDATA = 1841645603 | PSLVERR = 0 
# [1;32m[INFO] [0m [1;36m(ID=SCOREBOARD)[0m [1;34m[time = 2855][0m data stored at slave[ 58] = 1841645603 
# [1;32m[INFO] [0m [1;36m(ID=SCOREBOARD)[0m [1;34m[time = 2855][0m ---------------------------------------
# [1;32m[INFO] [0m [1;36m(ID=SCOREBOARD)[0m [1;34m[time = 2855][0m ----           TEST PASS           ----
# [1;32m[INFO] [0m [1;36m(ID=SCOREBOARD)[0m [1;34m[time = 2855][0m ---------------------------------------
# [1;32m[INFO] [0m [1;36m(ID=SCOREBOARD)[0m [1;34m[time = 2905][0m WRITE TRANSFER
# [1;32m[INFO] [0m [1;36m(ID=SCOREBOARD)[0m [1;34m[time = 2905][0m  PRESETN = 1 | PSELX = 1 | PWRITE = 1 | PENABLE = 1 | PSTRB = 0 | PREADY = 1 | PRDATA = 1841645603 | PSLVERR = 0 
# [1;32m[INFO] [0m [1;36m(ID=SCOREBOARD)[0m [1;34m[time = 2905][0m data strored at slave[ 32] = 3911383537 
# [1;32m[INFO] [0m [1;36m(ID=SCOREBOARD)[0m [1;34m[time = 2955][0m WRITE TRANSFER
# [1;32m[INFO] [0m [1;36m(ID=SCOREBOARD)[0m [1;34m[time = 2955][0m  PRESETN = 1 | PSELX = 1 | PWRITE = 1 | PENABLE = 1 | PSTRB = 11 | PREADY = 1 | PRDATA = 1841645603 | PSLVERR = 0 
# [1;32m[INFO] [0m [1;36m(ID=SCOREBOARD)[0m [1;34m[time = 2955][0m data strored at slave[ 32] = 4100918329 
# [1;32m[INFO] [0m [1;36m(ID=SCOREBOARD)[0m [1;34m[time = 2955][0m  PSTRB WRITE: ADDR = 32 | PSTRB = 11 | OLD_DATA = 3911383537 | NEW_DATA = 4095872057 
# [1;32m[INFO] [0m [1;36m(ID=SCOREBOARD)[0m [1;34m[time = 3005][0m READ TRANSFER
# [1;32m[INFO] [0m [1;36m(ID=SCOREBOARD)[0m [1;34m[time = 3005][0m  PRESETN = 1 | PSELX = 1 | PWRITE = 0 | PENABLE = 1 | PSTRB = 0 | PREADY = 1 | PRDATA = 4095872057 | PSLVERR = 0 
# [1;32m[INFO] [0m [1;36m(ID=SCOREBOARD)[0m [1;34m[time = 3005][0m data stored at slave[ 32] = 4095872057 
# [1;32m[INFO] [0m [1;36m(ID=SCOREBOARD)[0m [1;34m[time = 3005][0m ---------------------------------------
# [1;32m[INFO] [0m [1;36m(ID=SCOREBOARD)[0m [1;34m[time = 3005][0m ----           TEST PASS           ----
# [1;32m[INFO] [0m [1;36m(ID=SCOREBOARD)[0m [1;34m[time = 3005][0m ---------------------------------------
# [1;32m[INFO] [0m [1;36m(ID=SCOREBOARD)[0m [1;34m[time = 3055][0m WRITE TRANSFER
# [1;32m[INFO] [0m [1;36m(ID=SCOREBOARD)[0m [1;34m[time = 3055][0m  PRESETN = 1 | PSELX = 1 | PWRITE = 1 | PENABLE = 1 | PSTRB = 0 | PREADY = 1 | PRDATA = 4095872057 | PSLVERR = 0 
# [1;32m[INFO] [0m [1;36m(ID=SCOREBOARD)[0m [1;34m[time = 3055][0m data strored at slave[106] = 3355785766 
# [1;32m[INFO] [0m [1;36m(ID=SCOREBOARD)[0m [1;34m[time = 3105][0m WRITE TRANSFER
# [1;32m[INFO] [0m [1;36m(ID=SCOREBOARD)[0m [1;34m[time = 3105][0m  PRESETN = 1 | PSELX = 1 | PWRITE = 1 | PENABLE = 1 | PSTRB = 12 | PREADY = 1 | PRDATA = 4095872057 | PSLVERR = 0 
# [1;32m[INFO] [0m [1;36m(ID=SCOREBOARD)[0m [1;34m[time = 3105][0m data strored at slave[106] = 1306495429 
# [1;32m[INFO] [0m [1;36m(ID=SCOREBOARD)[0m [1;34m[time = 3105][0m  PSTRB WRITE: ADDR = 106 | PSTRB = 12 | OLD_DATA = 3355785766 | NEW_DATA = 1306475046 
# [1;32m[INFO] [0m [1;36m(ID=SCOREBOARD)[0m [1;34m[time = 3155][0m READ TRANSFER
# [1;32m[INFO] [0m [1;36m(ID=SCOREBOARD)[0m [1;34m[time = 3155][0m  PRESETN = 1 | PSELX = 1 | PWRITE = 0 | PENABLE = 1 | PSTRB = 0 | PREADY = 1 | PRDATA = 1306475046 | PSLVERR = 0 
# [1;32m[INFO] [0m [1;36m(ID=SCOREBOARD)[0m [1;34m[time = 3155][0m data stored at slave[106] = 1306475046 
# [1;32m[INFO] [0m [1;36m(ID=SCOREBOARD)[0m [1;34m[time = 3155][0m ---------------------------------------
# [1;32m[INFO] [0m [1;36m(ID=SCOREBOARD)[0m [1;34m[time = 3155][0m ----           TEST PASS           ----
# [1;32m[INFO] [0m [1;36m(ID=SCOREBOARD)[0m [1;34m[time = 3155][0m ---------------------------------------
# [1;32m[INFO] [0m [1;36m(ID=SCOREBOARD)[0m [1;34m[time = 3205][0m WRITE TRANSFER
# [1;32m[INFO] [0m [1;36m(ID=SCOREBOARD)[0m [1;34m[time = 3205][0m  PRESETN = 1 | PSELX = 1 | PWRITE = 1 | PENABLE = 1 | PSTRB = 0 | PREADY = 1 | PRDATA = 1306475046 | PSLVERR = 0 
# [1;32m[INFO] [0m [1;36m(ID=SCOREBOARD)[0m [1;34m[time = 3205][0m data strored at slave[137] =  983684707 
# [1;32m[INFO] [0m [1;36m(ID=SCOREBOARD)[0m [1;34m[time = 3255][0m WRITE TRANSFER
# [1;32m[INFO] [0m [1;36m(ID=SCOREBOARD)[0m [1;34m[time = 3255][0m  PRESETN = 1 | PSELX = 1 | PWRITE = 1 | PENABLE = 1 | PSTRB = 13 | PREADY = 1 | PRDATA = 1306475046 | PSLVERR = 0 
# [1;32m[INFO] [0m [1;36m(ID=SCOREBOARD)[0m [1;34m[time = 3255][0m data strored at slave[137] = 3949940055 
# [1;32m[INFO] [0m [1;36m(ID=SCOREBOARD)[0m [1;34m[time = 3255][0m  PSTRB WRITE: ADDR = 137 | PSTRB = 13 | OLD_DATA = 983684707 | NEW_DATA = 3949975127 
# [1;32m[INFO] [0m [1;36m(ID=SCOREBOARD)[0m [1;34m[time = 3305][0m READ TRANSFER
# [1;32m[INFO] [0m [1;36m(ID=SCOREBOARD)[0m [1;34m[time = 3305][0m  PRESETN = 1 | PSELX = 1 | PWRITE = 0 | PENABLE = 1 | PSTRB = 0 | PREADY = 1 | PRDATA = 3949975127 | PSLVERR = 0 
# [1;32m[INFO] [0m [1;36m(ID=SCOREBOARD)[0m [1;34m[time = 3305][0m data stored at slave[137] = 3949975127 
# [1;32m[INFO] [0m [1;36m(ID=SCOREBOARD)[0m [1;34m[time = 3305][0m ---------------------------------------
# [1;32m[INFO] [0m [1;36m(ID=SCOREBOARD)[0m [1;34m[time = 3305][0m ----           TEST PASS           ----
# [1;32m[INFO] [0m [1;36m(ID=SCOREBOARD)[0m [1;34m[time = 3305][0m ---------------------------------------
# [1;32m[INFO] [0m [1;36m(ID=SCOREBOARD)[0m [1;34m[time = 3355][0m WRITE TRANSFER
# [1;32m[INFO] [0m [1;36m(ID=SCOREBOARD)[0m [1;34m[time = 3355][0m  PRESETN = 1 | PSELX = 1 | PWRITE = 1 | PENABLE = 1 | PSTRB = 0 | PREADY = 1 | PRDATA = 3949975127 | PSLVERR = 0 
# [1;32m[INFO] [0m [1;36m(ID=SCOREBOARD)[0m [1;34m[time = 3355][0m data strored at slave[103] = 3442611533 
# [1;32m[INFO] [0m [1;36m(ID=SCOREBOARD)[0m [1;34m[time = 3405][0m WRITE TRANSFER
# [1;32m[INFO] [0m [1;36m(ID=SCOREBOARD)[0m [1;34m[time = 3405][0m  PRESETN = 1 | PSELX = 1 | PWRITE = 1 | PENABLE = 1 | PSTRB = 14 | PREADY = 1 | PRDATA = 3949975127 | PSLVERR = 0 
# [1;32m[INFO] [0m [1;36m(ID=SCOREBOARD)[0m [1;34m[time = 3405][0m data strored at slave[103] =   20358971 
# [1;32m[INFO] [0m [1;36m(ID=SCOREBOARD)[0m [1;34m[time = 3405][0m  PSTRB WRITE: ADDR = 103 | PSTRB = 14 | OLD_DATA = 3442611533 | NEW_DATA = 20358989 
# [1;32m[INFO] [0m [1;36m(ID=SCOREBOARD)[0m [1;34m[time = 3455][0m READ TRANSFER
# [1;32m[INFO] [0m [1;36m(ID=SCOREBOARD)[0m [1;34m[time = 3455][0m  PRESETN = 1 | PSELX = 1 | PWRITE = 0 | PENABLE = 1 | PSTRB = 0 | PREADY = 1 | PRDATA = 20358989 | PSLVERR = 0 
# [1;32m[INFO] [0m [1;36m(ID=SCOREBOARD)[0m [1;34m[time = 3455][0m data stored at slave[103] =   20358989 
# [1;32m[INFO] [0m [1;36m(ID=SCOREBOARD)[0m [1;34m[time = 3455][0m ---------------------------------------
# [1;32m[INFO] [0m [1;36m(ID=SCOREBOARD)[0m [1;34m[time = 3455][0m ----           TEST PASS           ----
# [1;32m[INFO] [0m [1;36m(ID=SCOREBOARD)[0m [1;34m[time = 3455][0m ---------------------------------------
# [1;32m[INFO] [0m [1;36m(ID=SCOREBOARD)[0m [1;34m[time = 3505][0m WRITE TRANSFER
# [1;32m[INFO] [0m [1;36m(ID=SCOREBOARD)[0m [1;34m[time = 3505][0m  PRESETN = 1 | PSELX = 1 | PWRITE = 1 | PENABLE = 1 | PSTRB = 0 | PREADY = 1 | PRDATA = 20358989 | PSLVERR = 0 
# [1;32m[INFO] [0m [1;36m(ID=SCOREBOARD)[0m [1;34m[time = 3505][0m data strored at slave[177] = 2487892338 
# [1;32m[INFO] [0m [1;36m(ID=SCOREBOARD)[0m [1;34m[time = 3555][0m WRITE TRANSFER
# [1;32m[INFO] [0m [1;36m(ID=SCOREBOARD)[0m [1;34m[time = 3555][0m  PRESETN = 1 | PSELX = 1 | PWRITE = 1 | PENABLE = 1 | PSTRB = 15 | PREADY = 1 | PRDATA = 20358989 | PSLVERR = 0 
# [1;32m[INFO] [0m [1;36m(ID=SCOREBOARD)[0m [1;34m[time = 3555][0m data strored at slave[177] = 1834186223 
# [1;32m[INFO] [0m [1;36m(ID=SCOREBOARD)[0m [1;34m[time = 3555][0m  PSTRB WRITE: ADDR = 177 | PSTRB = 15 | OLD_DATA = 2487892338 | NEW_DATA = 1834186223 
# [1;32m[INFO] [0m [1;36m(ID=SCOREBOARD)[0m [1;34m[time = 3605][0m READ TRANSFER
# [1;32m[INFO] [0m [1;36m(ID=SCOREBOARD)[0m [1;34m[time = 3605][0m  PRESETN = 1 | PSELX = 1 | PWRITE = 0 | PENABLE = 1 | PSTRB = 0 | PREADY = 1 | PRDATA = 1834186223 | PSLVERR = 0 
# [1;32m[INFO] [0m [1;36m(ID=SCOREBOARD)[0m [1;34m[time = 3605][0m data stored at slave[177] = 1834186223 
# [1;32m[INFO] [0m [1;36m(ID=SCOREBOARD)[0m [1;34m[time = 3605][0m ---------------------------------------
# [1;32m[INFO] [0m [1;36m(ID=SCOREBOARD)[0m [1;34m[time = 3605][0m ----           TEST PASS           ----
# [1;32m[INFO] [0m [1;36m(ID=SCOREBOARD)[0m [1;34m[time = 3605][0m ---------------------------------------
# [1;32m[INFO] [0m [1;36m(ID=TEST_DONE)[0m [1;34m[time = 3615][0m 'run' phase is ready to proceed to the 'extract' phase
# [1;32m[INFO] [0m [1;36m(ID=SCOREBOARD)[0m [1;34m[time = 3615][0m TOTAL PASS : 33
# [1;32m[INFO] [0m [1;36m(ID=SCOREBOARD)[0m [1;34m[time = 3615][0m TOTAL FAIL : 5
# [1;32m[INFO] [0m [1;36m(ID=SCOREBOARD)[0m [1;34m[time = 3615][0m TOTAL CASES : 38
# [1;32m[INFO] [0m [1;36m(ID=apb_master_subscriber)[0m [1;34m[time = 3615][0m [ACTIVE_MONITOR] Coverage ------> 96.88%,
# [1;32m[INFO] [0m [1;36m(ID=apb_master_subscriber)[0m [1;34m[time = 3615][0m [PASSIVE_MONITOR] Coverage ------> 100.00%
# 
# --- UVM Report Summary ---
# 
# ** Report counts by severity
# UVM_INFO :  365
# UVM_WARNING :    0
# UVM_ERROR :    0
# UVM_FATAL :    0
# ** Report counts by id
# [Questa UVM]     2
# [RNTST]     1
# [SCOREBOARD]   358
# [TEST_DONE]     1
# [UVMTOP]     1
# [apb_master_subscriber]     2
# ** Note: $finish    : /tools/mentor/questasim_10.6c/questasim/linux/../verilog_src/uvm-1.1d/src/base/uvm_root.svh(430)
#    Time: 3615 ns  Iteration: 67  Instance: /top
# Saving coverage database on exit...
# End time: 21:25:52 on Dec 06,2025, Elapsed time: 0:00:04
# Errors: 8, Warnings: 8
